Circuit: * C:\Users\subha\OneDrive\Documents\GitHub\PMIC_Final_Project_Fall_Buck_Converter\Compensator.asc

Ignoring BSIM parameter XL
Ignoring BSIM parameter XW
Ignoring BSIM parameter XL
Ignoring BSIM parameter XW
Ignoring BSIM parameter XL
Ignoring BSIM parameter XW
Ignoring BSIM parameter XL
Ignoring BSIM parameter XW
Warning: Pd = 0 is less than W.
Warning: Ps = 0 is less than W.
Warning: Pd = 0 is less than W.
Warning: Ps = 0 is less than W.
Warning: Pd = 0 is less than W.
Warning: Ps = 0 is less than W.
Warning: Pd = 0 is less than W.
Warning: Ps = 0 is less than W.
Warning: Pd = 0 is less than W.
Warning: Ps = 0 is less than W.
Warning: Pd = 0 is less than W.
Warning: Ps = 0 is less than W.
Warning: Pd = 0 is less than W.
Warning: Ps = 0 is less than W.
Warning: Pd = 0 is less than W.
Warning: Ps = 0 is less than W.
Warning: Pd = 0 is less than W.
Warning: Ps = 0 is less than W.
Warning: Pd = 0 is less than W.
Warning: Ps = 0 is less than W.
Direct Newton iteration for .op point succeeded.
Semiconductor Device Operating Points:
                        --- BSIM3 MOSFETS ---
Name:      m:x2:7      m:x2:4      m:x2:3      m:x2:8      m:x2:6
Model:    x2:cmosp    x2:cmosp    x2:cmosp    x2:cmosn    x2:cmosn
Id:       -6.38e-06   -5.19e-06   -5.22e-06    6.38e-06    5.19e-06
Vgs:      -5.39e-01   -5.77e-01   -5.77e-01    5.37e-01    4.60e-01
Vds:      -1.24e+00   -5.39e-01   -5.77e-01    5.56e-01    1.22e+00
Vbs:       0.00e+00    0.00e+00    0.00e+00    0.00e+00   -4.02e-02
Vth:      -5.03e-01   -4.53e-01   -4.53e-01    4.83e-01    4.71e-01
Vdsat:    -7.02e-02   -1.15e-01   -1.15e-01    6.90e-02    4.82e-02
Gm:        1.21e-04    6.99e-05    7.03e-05    1.16e-04    1.18e-04
Gds:       1.04e-06    8.34e-07    7.99e-07    3.51e-06    1.17e-06
Gmb        3.59e-05    2.08e-05    2.09e-05    3.00e-05    3.28e-05
Cbd:       0.00e+00    0.00e+00    0.00e+00    0.00e+00    0.00e+00
Cbs:       0.00e+00    0.00e+00    0.00e+00    0.00e+00    0.00e+00
Cgsov:     3.18e-15    1.91e-15    1.91e-15    8.23e-16    8.23e-15
Cgdov:     3.18e-15    1.91e-15    1.91e-15    8.23e-16    8.23e-15
Cgbov:     1.21e-19    3.01e-19    3.01e-19    1.46e-19    3.26e-19
dQgdVgb:   9.85e-15    1.01e-14    1.01e-14    2.57e-15    3.01e-14
dQgdVdb:  -3.17e-15   -1.89e-15   -1.89e-15   -8.18e-16   -8.19e-15
dQgdVsb:  -6.25e-15   -7.92e-15   -7.92e-15   -1.63e-15   -1.74e-14
dQddVgb:  -4.39e-15   -4.35e-15   -4.35e-15   -1.16e-15   -1.21e-14
dQddVdb:   3.17e-15    1.90e-15    1.90e-15    8.20e-16    8.21e-15
dQddVsb:   1.60e-15    3.21e-15    3.21e-15    4.35e-16    5.03e-15
dQbdVgb:  -1.06e-15   -1.39e-15   -1.39e-15   -2.54e-16   -6.00e-15
dQbdVdb:   2.78e-19   -9.69e-19   -5.90e-19    2.79e-19    4.23e-18
dQbdVsb:  -1.25e-16   -4.03e-16   -4.03e-16   -6.24e-17   -9.37e-16

Name:      m:x2:5      m:x2:2      m:x2:12     m:x1:7      m:x1:4
Model:    x2:cmosn    x2:cmosn    x2:cmosn    x1:cmosp    x1:cmosp
Id:        5.22e-06    1.04e-05    6.31e-06   -6.38e-06   -5.19e-06
Vgs:       4.60e-01    5.37e-01    5.37e-01   -5.39e-01   -5.77e-01
Vds:       1.18e+00    4.02e-02    5.37e-01   -1.24e+00   -5.39e-01
Vbs:      -4.02e-02    0.00e+00    0.00e+00    0.00e+00    0.00e+00
Vth:       4.72e-01    4.99e-01    4.83e-01   -5.03e-01   -4.53e-01
Vdsat:     4.83e-02    6.33e-02    6.89e-02   -7.02e-02   -1.15e-01
Gm:        1.19e-04    1.80e-04    1.15e-04    1.21e-04    6.99e-05
Gds:       1.18e-06    1.60e-04    3.52e-06    1.04e-06    8.34e-07
Gmb        3.30e-05    4.63e-05    2.97e-05    3.59e-05    2.08e-05
Cbd:       0.00e+00    0.00e+00    0.00e+00    0.00e+00    0.00e+00
Cbs:       0.00e+00    0.00e+00    0.00e+00    0.00e+00    0.00e+00
Cgsov:     8.23e-15    4.12e-15    8.23e-16    3.18e-15    1.91e-15
Cgdov:     8.23e-15    4.12e-15    8.23e-16    3.18e-15    1.91e-15
Cgbov:     3.26e-19    1.46e-19    1.46e-19    1.21e-19    3.01e-19
dQgdVgb:   3.02e-14    1.28e-14    2.57e-15    9.85e-15    1.01e-14
dQgdVdb:  -8.19e-15   -4.41e-15   -8.18e-16   -3.17e-15   -1.89e-15
dQgdVsb:  -1.74e-14   -7.70e-15   -1.63e-15   -6.25e-15   -7.92e-15
dQddVgb:  -1.21e-14   -5.89e-15   -1.16e-15   -4.39e-15   -4.35e-15
dQddVdb:   8.21e-15    4.47e-15    8.20e-16    3.17e-15    1.90e-15
dQddVsb:   5.06e-15    1.91e-15    4.34e-16    1.60e-15    3.21e-15
dQbdVgb:  -5.99e-15   -1.00e-15   -2.54e-16   -1.06e-15   -1.39e-15
dQbdVdb:   4.25e-18   -4.21e-16    2.65e-19    2.78e-19   -9.69e-19
dQbdVsb:  -9.43e-16   -2.34e-16   -6.24e-17   -1.25e-16   -4.03e-16

Name:      m:x1:3      m:x1:8      m:x1:6      m:x1:5      m:x1:2
Model:    x1:cmosp    x1:cmosn    x1:cmosn    x1:cmosn    x1:cmosn
Id:       -5.22e-06    6.38e-06    5.19e-06    5.22e-06    1.04e-05
Vgs:      -5.77e-01    5.37e-01    4.60e-01    4.60e-01    5.37e-01
Vds:      -5.77e-01    5.56e-01    1.22e+00    1.18e+00    4.02e-02
Vbs:       0.00e+00    0.00e+00   -4.02e-02   -4.02e-02    0.00e+00
Vth:      -4.53e-01    4.83e-01    4.71e-01    4.72e-01    4.99e-01
Vdsat:    -1.15e-01    6.90e-02    4.82e-02    4.83e-02    6.33e-02
Gm:        7.03e-05    1.16e-04    1.18e-04    1.19e-04    1.80e-04
Gds:       7.99e-07    3.51e-06    1.17e-06    1.18e-06    1.60e-04
Gmb        2.09e-05    3.00e-05    3.28e-05    3.30e-05    4.63e-05
Cbd:       0.00e+00    0.00e+00    0.00e+00    0.00e+00    0.00e+00
Cbs:       0.00e+00    0.00e+00    0.00e+00    0.00e+00    0.00e+00
Cgsov:     1.91e-15    8.23e-16    8.23e-15    8.23e-15    4.12e-15
Cgdov:     1.91e-15    8.23e-16    8.23e-15    8.23e-15    4.12e-15
Cgbov:     3.01e-19    1.46e-19    3.26e-19    3.26e-19    1.46e-19
dQgdVgb:   1.01e-14    2.57e-15    3.01e-14    3.02e-14    1.28e-14
dQgdVdb:  -1.89e-15   -8.18e-16   -8.19e-15   -8.19e-15   -4.41e-15
dQgdVsb:  -7.92e-15   -1.63e-15   -1.74e-14   -1.74e-14   -7.70e-15
dQddVgb:  -4.35e-15   -1.16e-15   -1.21e-14   -1.21e-14   -5.89e-15
dQddVdb:   1.90e-15    8.20e-16    8.21e-15    8.21e-15    4.47e-15
dQddVsb:   3.21e-15    4.35e-16    5.03e-15    5.06e-15    1.91e-15
dQbdVgb:  -1.39e-15   -2.54e-16   -6.00e-15   -5.99e-15   -1.00e-15
dQbdVdb:  -5.90e-19    2.79e-19    4.23e-18    4.25e-18   -4.21e-16
dQbdVsb:  -4.03e-16   -6.24e-17   -9.37e-16   -9.43e-16   -2.34e-16

Name:      m:x1:12
Model:    x1:cmosn
Id:        6.31e-06
Vgs:       5.37e-01
Vds:       5.37e-01
Vbs:       0.00e+00
Vth:       4.83e-01
Vdsat:     6.89e-02
Gm:        1.15e-04
Gds:       3.52e-06
Gmb        2.97e-05
Cbd:       0.00e+00
Cbs:       0.00e+00
Cgsov:     8.23e-16
Cgdov:     8.23e-16
Cgbov:     1.46e-19
dQgdVgb:   2.57e-15
dQgdVdb:  -8.18e-16
dQgdVsb:  -1.63e-15
dQddVgb:  -1.16e-15
dQddVdb:   8.20e-16
dQddVsb:   4.34e-16
dQbdVgb:  -2.54e-16
dQbdVdb:   2.65e-19
dQbdVsb:  -6.24e-17



Date: Tue Nov 13 14:39:48 2018
Total elapsed time: 0.285 seconds.

tnom = 27
temp = 27
method = trap
totiter = 7
traniter = 0
tranpoints = 0
accept = 0
rejected = 0
matrix size = 35
fillins = 18
solver = Normal
Matrix Compiler1:     156 opcodes
Matrix Compiler2: 3.06 KB object code size
