Circuit: * C:\Users\subha\OneDrive\Documents\GitHub\PMIC_Final_Project_Fall_Buck_Converter\Compensator.asc

Ignoring BSIM parameter XL
Ignoring BSIM parameter XW
Ignoring BSIM parameter XL
Ignoring BSIM parameter XW
Ignoring BSIM parameter XL
Ignoring BSIM parameter XW
Ignoring BSIM parameter XL
Ignoring BSIM parameter XW
Warning: Pd = 0 is less than W.
Warning: Ps = 0 is less than W.
Warning: Pd = 0 is less than W.
Warning: Ps = 0 is less than W.
Warning: Pd = 0 is less than W.
Warning: Ps = 0 is less than W.
Warning: Pd = 0 is less than W.
Warning: Ps = 0 is less than W.
Warning: Pd = 0 is less than W.
Warning: Ps = 0 is less than W.
Warning: Pd = 0 is less than W.
Warning: Ps = 0 is less than W.
Warning: Pd = 0 is less than W.
Warning: Ps = 0 is less than W.
Warning: Pd = 0 is less than W.
Warning: Ps = 0 is less than W.
Direct Newton iteration for .op point succeeded.
Semiconductor Device Operating Points:
                        --- BSIM3 MOSFETS ---
Name:      m:x2:7      m:x2:4      m:x2:3      m:x2:8      m:x2:6
Model:    x2:cmosp    x2:cmosp    x2:cmosp    x2:cmosn    x2:cmosn
Id:       -3.25e-05   -1.12e-05   -1.13e-05    3.25e-05    1.12e-05
Vgs:      -5.98e-01   -6.34e-01   -6.34e-01    5.76e-01    6.06e-01
Vds:      -9.09e-01   -5.98e-01   -6.34e-01    8.91e-01    1.01e+00
Vbs:       0.00e+00    0.00e+00    0.00e+00    0.00e+00   -1.94e-01
Vth:      -5.06e-01   -5.00e-01   -4.99e-01    4.91e-01    5.32e-01
Vdsat:    -9.82e-02   -1.23e-01   -1.23e-01    8.21e-02    7.99e-02
Gm:        5.00e-04    1.40e-04    1.41e-04    5.01e-04    1.77e-04
Gds:       5.28e-06    2.55e-06    2.41e-06    1.30e-05    4.71e-06
Gmb        1.48e-04    4.15e-05    4.18e-05    1.26e-04    4.28e-05
Cbd:       0.00e+00    0.00e+00    0.00e+00    0.00e+00    0.00e+00
Cbs:       0.00e+00    0.00e+00    0.00e+00    0.00e+00    0.00e+00
Cgsov:     6.35e-15    1.27e-15    1.27e-15    2.47e-15    8.23e-16
Cgdov:     6.35e-15    1.27e-15    1.27e-15    2.47e-15    8.23e-16
Cgbov:     1.21e-19    1.21e-19    1.21e-19    1.46e-19    1.46e-19
dQgdVgb:   2.10e-14    4.27e-15    4.27e-15    7.93e-15    2.62e-15
dQgdVdb:  -6.33e-15   -1.27e-15   -1.27e-15   -2.45e-15   -8.17e-16
dQgdVsb:  -1.42e-14   -2.94e-15   -2.94e-15   -5.15e-15   -1.70e-15
dQddVgb:  -9.46e-15   -1.93e-15   -1.93e-15   -3.59e-15   -1.19e-15
dQddVdb:   6.34e-15    1.27e-15    1.27e-15    2.46e-15    8.20e-16
dQddVsb:   4.08e-15    8.66e-16    8.66e-16    1.44e-15    4.64e-16
dQbdVgb:  -2.06e-15   -4.11e-16   -4.11e-16   -7.43e-16   -2.40e-16
dQbdVdb:   3.76e-19   -2.86e-19   -2.11e-19    1.01e-18    2.97e-19
dQbdVsb:  -3.08e-16   -5.94e-17   -5.93e-17   -2.06e-16   -4.84e-17

Name:      m:x2:5      m:x2:2      m:x2:12     m:x1:7      m:x1:4
Model:    x2:cmosn    x2:cmosn    x2:cmosn    x1:cmosp    x1:cmosp
Id:        1.13e-05    2.24e-05    1.22e-05   -3.25e-05   -1.12e-05
Vgs:       6.08e-01    5.76e-01    5.76e-01   -5.98e-01   -6.34e-01
Vds:       9.72e-01    1.94e-01    5.76e-01   -9.09e-01   -5.98e-01
Vbs:      -1.94e-01    0.00e+00    0.00e+00    0.00e+00    0.00e+00
Vth:       5.32e-01    4.96e-01    4.83e-01   -5.06e-01   -5.00e-01
Vdsat:     8.04e-02    7.99e-02    8.53e-02   -9.82e-02   -1.23e-01
Gm:        1.78e-04    3.71e-04    1.85e-04    5.00e-04    1.40e-04
Gds:       4.77e-06    2.32e-05    5.70e-06    5.28e-06    2.55e-06
Gmb        4.30e-05    9.39e-05    4.76e-05    1.48e-04    4.15e-05
Cbd:       0.00e+00    0.00e+00    0.00e+00    0.00e+00    0.00e+00
Cbs:       0.00e+00    0.00e+00    0.00e+00    0.00e+00    0.00e+00
Cgsov:     8.23e-16    2.47e-15    8.23e-16    6.35e-15    1.27e-15
Cgdov:     8.23e-16    2.47e-15    8.23e-16    6.35e-15    1.27e-15
Cgbov:     1.46e-19    1.46e-19    1.46e-19    1.21e-19    1.21e-19
dQgdVgb:   2.62e-15    7.91e-15    2.66e-15    2.10e-14    4.27e-15
dQgdVdb:  -8.17e-16   -2.46e-15   -8.17e-16   -6.33e-15   -1.27e-15
dQgdVsb:  -1.71e-15   -5.12e-15   -1.74e-15   -1.42e-14   -2.94e-15
dQddVgb:  -1.19e-15   -3.59e-15   -1.20e-15   -9.46e-15   -1.93e-15
dQddVdb:   8.20e-16    2.47e-15    8.20e-16    6.34e-15    1.27e-15
dQddVsb:   4.66e-16    1.43e-15    4.93e-16    4.08e-15    8.66e-16
dQbdVgb:  -2.40e-16   -7.28e-16   -2.47e-16   -2.06e-15   -4.11e-16
dQbdVdb:   2.94e-19   -1.18e-17    2.65e-19    3.76e-19   -2.86e-19
dQbdVsb:  -4.85e-17   -2.12e-16   -6.94e-17   -3.08e-16   -5.94e-17

Name:      m:x1:3      m:x1:8      m:x1:6      m:x1:5      m:x1:2
Model:    x1:cmosp    x1:cmosn    x1:cmosn    x1:cmosn    x1:cmosn
Id:       -1.13e-05    3.25e-05    1.12e-05    1.13e-05    2.24e-05
Vgs:      -6.34e-01    5.76e-01    6.06e-01    6.08e-01    5.76e-01
Vds:      -6.34e-01    8.91e-01    1.01e+00    9.72e-01    1.94e-01
Vbs:       0.00e+00    0.00e+00   -1.94e-01   -1.94e-01    0.00e+00
Vth:      -4.99e-01    4.91e-01    5.32e-01    5.32e-01    4.96e-01
Vdsat:    -1.23e-01    8.21e-02    7.99e-02    8.04e-02    7.99e-02
Gm:        1.41e-04    5.01e-04    1.77e-04    1.78e-04    3.71e-04
Gds:       2.41e-06    1.30e-05    4.71e-06    4.77e-06    2.32e-05
Gmb        4.18e-05    1.26e-04    4.28e-05    4.30e-05    9.39e-05
Cbd:       0.00e+00    0.00e+00    0.00e+00    0.00e+00    0.00e+00
Cbs:       0.00e+00    0.00e+00    0.00e+00    0.00e+00    0.00e+00
Cgsov:     1.27e-15    2.47e-15    8.23e-16    8.23e-16    2.47e-15
Cgdov:     1.27e-15    2.47e-15    8.23e-16    8.23e-16    2.47e-15
Cgbov:     1.21e-19    1.46e-19    1.46e-19    1.46e-19    1.46e-19
dQgdVgb:   4.27e-15    7.93e-15    2.62e-15    2.62e-15    7.91e-15
dQgdVdb:  -1.27e-15   -2.45e-15   -8.17e-16   -8.17e-16   -2.46e-15
dQgdVsb:  -2.94e-15   -5.15e-15   -1.70e-15   -1.71e-15   -5.12e-15
dQddVgb:  -1.93e-15   -3.59e-15   -1.19e-15   -1.19e-15   -3.59e-15
dQddVdb:   1.27e-15    2.46e-15    8.20e-16    8.20e-16    2.47e-15
dQddVsb:   8.66e-16    1.44e-15    4.64e-16    4.66e-16    1.43e-15
dQbdVgb:  -4.11e-16   -7.43e-16   -2.40e-16   -2.40e-16   -7.28e-16
dQbdVdb:  -2.11e-19    1.01e-18    2.97e-19    2.94e-19   -1.18e-17
dQbdVsb:  -5.93e-17   -2.06e-16   -4.84e-17   -4.85e-17   -2.12e-16

Name:      m:x1:12
Model:    x1:cmosn
Id:        1.22e-05
Vgs:       5.76e-01
Vds:       5.76e-01
Vbs:       0.00e+00
Vth:       4.83e-01
Vdsat:     8.53e-02
Gm:        1.85e-04
Gds:       5.70e-06
Gmb        4.76e-05
Cbd:       0.00e+00
Cbs:       0.00e+00
Cgsov:     8.23e-16
Cgdov:     8.23e-16
Cgbov:     1.46e-19
dQgdVgb:   2.66e-15
dQgdVdb:  -8.17e-16
dQgdVsb:  -1.74e-15
dQddVgb:  -1.20e-15
dQddVdb:   8.20e-16
dQddVsb:   4.93e-16
dQbdVgb:  -2.47e-16
dQbdVdb:   2.65e-19
dQbdVsb:  -6.94e-17



Date: Fri Nov 09 08:42:52 2018
Total elapsed time: 0.374 seconds.

tnom = 27
temp = 27
method = trap
totiter = 8
traniter = 0
tranpoints = 0
accept = 0
rejected = 0
matrix size = 37
fillins = 18
solver = Normal
Matrix Compiler1:     170 opcodes
Matrix Compiler2: 3.27 KB object code size
