Circuit: * C:\Users\subha\OneDrive\Documents\GitHub\PMIC_Final_Project_Fall_Buck_Converter\tb_error_amplifier.asc

Ignoring BSIM parameter XL
Ignoring BSIM parameter XW
Ignoring BSIM parameter XL
Ignoring BSIM parameter XW
Warning: Pd = 0 is less than W.
Warning: Ps = 0 is less than W.
Warning: Pd = 0 is less than W.
Warning: Ps = 0 is less than W.
Warning: Pd = 0 is less than W.
Warning: Ps = 0 is less than W.
Warning: Pd = 0 is less than W.
Warning: Ps = 0 is less than W.
Warning: Pd = 0 is less than W.
Warning: Ps = 0 is less than W.
Direct Newton iteration for .op point succeeded.
Semiconductor Device Operating Points:
                        --- Bipolar Transistors ---
Name:     q:x1:2      q:x1:1
Model:    2n3904      2n3904
Ib:       1.57e-09    2.88e-09
Ic:       4.74e-07    8.69e-07
Vbe:      4.57e-01    4.73e-01
Vbc:     -4.44e-01   -4.57e-01
Vce:      9.01e-01    9.30e-01
BetaDC:   3.01e+02    3.01e+02
Gm:       1.83e-05    3.36e-05
Rpi:      1.64e+07    8.97e+06
Rx:       2.00e+01    2.00e+01
Ro:       2.12e+08    1.16e+08
Cbe:      1.08e-11    1.09e-11
Cbc:      3.43e-12    3.42e-12
Cjs:      0.00e+00    0.00e+00
BetaAC:   3.01e+02    3.01e+02
Cbx:      0.00e+00    0.00e+00
Ft:       2.05e+05    3.72e+05

                        --- BSIM3 MOSFETS ---
Name:      m:x1:12     m:x1:1      m:x1:8      m:x1:7      m:x1:14
Model:    x1:cmosn    x1:cmosn    x1:cmosn    x1:cmosn    x1:cmosp
Id:        5.98e-07    6.50e-07    2.47e-07    2.47e-07   -1.54e-07
Vgs:       4.30e-01    7.89e-01    4.16e-01    4.16e-01   -4.26e-01
Vds:       4.30e-01    1.11e-03    4.16e-01    4.16e-01   -1.01e+00
Vbs:       0.00e+00    0.00e+00    0.00e+00    0.00e+00    0.00e+00
Vth:       4.84e-01    4.87e-01    4.58e-01    4.58e-01   -4.88e-01
Vdsat:     4.20e-02    1.69e-01    4.21e-02    4.21e-02   -4.44e-02
Gm:        1.40e-05    2.11e-06    5.88e-06    5.88e-06    3.44e-06
Gds:       4.77e-07    5.86e-04    7.76e-08    7.76e-08    3.55e-08
Gmb        3.78e-06    5.75e-07    1.70e-06    1.70e-06    1.06e-06
Cbd:       0.00e+00    0.00e+00    0.00e+00    0.00e+00    0.00e+00
Cbs:       0.00e+00    0.00e+00    0.00e+00    0.00e+00    0.00e+00
Cgsov:     8.23e-16    8.23e-16    8.23e-16    8.23e-16    6.35e-16
Cgdov:     8.23e-16    8.23e-16    8.23e-16    8.23e-16    6.35e-16
Cgbov:     1.46e-19    1.46e-19    3.26e-19    3.26e-19    1.21e-19
dQgdVgb:   2.10e-15    2.88e-15    2.73e-15    2.73e-15    1.62e-15
dQgdVdb:  -8.22e-16   -1.35e-15   -8.20e-16   -8.20e-16   -6.35e-16
dQgdVsb:  -1.01e-15   -1.50e-15   -1.35e-15   -1.35e-15   -7.80e-16
dQddVgb:  -8.99e-16   -1.44e-15   -1.04e-15   -1.04e-15   -6.92e-16
dQddVdb:   8.22e-16    1.44e-15    8.22e-16    8.22e-16    6.35e-16
dQddVsb:   9.92e-17    1.72e-16    2.93e-16    2.93e-16    7.59e-17
dQbdVgb:  -2.98e-16   -6.24e-18   -6.45e-16   -6.45e-16   -2.33e-16
dQbdVdb:   7.19e-20   -7.12e-16    2.07e-19    2.07e-19    1.65e-20
dQbdVsb:  -1.58e-17    3.34e-16   -5.81e-17   -5.81e-17   -6.39e-18

Name:      m:x1:13     m:x1:11     m:x1:10     m:x1:2      m:x1:9
Model:    x1:cmosp    x1:cmosp    x1:cmosp    x1:cmosp    x1:cmosp
Id:       -1.54e-07   -5.98e-07   -5.97e-07   -5.97e-07   -6.50e-07
Vgs:      -3.73e-01   -4.26e-01   -4.26e-01   -4.36e-01   -4.26e-01
Vds:      -7.89e-01   -1.37e+00   -1.36e+00   -4.37e-01   -1.80e+00
Vbs:       0.00e+00    0.00e+00    0.00e+00    0.00e+00    0.00e+00
Vth:      -5.05e-01   -5.03e-01   -5.03e-01   -5.06e-01   -5.01e-01
Vdsat:    -4.05e-02   -4.36e-02   -4.36e-02   -4.43e-02   -4.38e-02
Gm:        3.63e-06    1.35e-05    1.35e-05    1.35e-05    1.46e-05
Gds:       3.93e-08    1.21e-07    1.21e-07    2.08e-07    1.22e-07
Gmb        1.15e-06    4.15e-06    4.14e-06    4.16e-06    4.48e-06
Cbd:       0.00e+00    0.00e+00    0.00e+00    0.00e+00    0.00e+00
Cbs:       0.00e+00    0.00e+00    0.00e+00    0.00e+00    0.00e+00
Cgsov:     3.18e-15    3.18e-15    3.18e-15    3.18e-15    3.18e-15
Cgdov:     3.18e-15    3.18e-15    3.18e-15    3.18e-15    3.18e-15
Cgbov:     1.21e-19    1.21e-19    1.21e-19    1.21e-19    1.21e-19
dQgdVgb:   7.67e-15    7.94e-15    7.94e-15    8.00e-15    7.95e-15
dQgdVdb:  -3.17e-15   -3.17e-15   -3.17e-15   -3.17e-15   -3.17e-15
dQgdVsb:  -3.31e-15   -3.70e-15   -3.70e-15   -3.79e-15   -3.71e-15
dQddVgb:  -3.23e-15   -3.38e-15   -3.38e-15   -3.42e-15   -3.39e-15
dQddVdb:   3.17e-15    3.17e-15    3.17e-15    3.17e-15    3.17e-15
dQddVsb:   7.39e-17    2.75e-16    2.75e-16    3.22e-16    2.83e-16
dQbdVgb:  -1.21e-15   -1.17e-15   -1.17e-15   -1.17e-15   -1.17e-15
dQbdVdb:   1.58e-20    6.17e-20    6.16e-20   -1.88e-20    6.52e-20
dQbdVsb:  -7.93e-18   -2.61e-17   -2.61e-17   -3.03e-17   -2.69e-17

Name:      m:x1:6      m:x1:5      m:x1:4      m:x1:3
Model:    x1:cmosp    x1:cmosp    x1:cmosp    x1:cmosp
Id:       -2.47e-07   -2.47e-07   -4.95e-07   -4.74e-07
Vgs:      -4.41e-01   -4.41e-01   -4.26e-01   -4.26e-01
Vds:      -8.24e-01   -8.24e-01   -5.59e-01   -4.26e-01
Vbs:       0.00e+00    0.00e+00    0.00e+00    0.00e+00
Vth:      -4.94e-01   -4.94e-01   -5.05e-01   -5.06e-01
Vdsat:    -4.57e-02   -4.57e-02   -4.34e-02   -4.34e-02
Gm:        5.50e-06    5.50e-06    1.12e-05    1.08e-05
Gds:       6.02e-08    6.02e-08    1.47e-07    1.69e-07
Gmb        1.68e-06    1.68e-06    3.48e-06    3.34e-06
Cbd:       0.00e+00    0.00e+00    0.00e+00    0.00e+00
Cbs:       0.00e+00    0.00e+00    0.00e+00    0.00e+00
Cgsov:     8.57e-16    8.57e-16    3.18e-15    3.18e-15
Cgdov:     8.57e-16    8.57e-16    3.18e-15    3.18e-15
Cgbov:     1.21e-19    1.21e-19    1.21e-19    1.21e-19
dQgdVgb:   2.21e-15    2.21e-15    7.91e-15    7.91e-15
dQgdVdb:  -8.57e-16   -8.57e-16   -3.17e-15   -3.17e-15
dQgdVsb:  -1.09e-15   -1.09e-15   -3.67e-15   -3.66e-15
dQddVgb:  -9.50e-16   -9.50e-16   -3.37e-15   -3.37e-15
dQddVdb:   8.57e-16    8.57e-16    3.17e-15    3.17e-15
dQddVsb:   1.23e-16    1.23e-16    2.59e-16    2.57e-16
dQbdVgb:  -3.12e-16   -3.12e-16   -1.17e-15   -1.17e-15
dQbdVdb:   2.27e-20    2.27e-20    2.46e-20   -1.77e-20
dQbdVsb:  -1.04e-17   -1.04e-17   -2.48e-17   -2.48e-17



Date: Tue Oct 30 21:13:18 2018
Total elapsed time: 0.332 seconds.

tnom = 27
temp = 27
method = trap
totiter = 26
traniter = 0
tranpoints = 0
accept = 0
rejected = 0
matrix size = 22
fillins = 6
solver = Normal
Matrix Compiler1:     112 opcodes
Matrix Compiler2: 2.17 KB object code size
