Circuit: * C:\Users\subha\OneDrive\Documents\GitHub\PMIC_Final_Project_Fall_Buck_Converter\tb_error_amplifier.asc

Ignoring BSIM parameter XL
Ignoring BSIM parameter XW
Ignoring BSIM parameter XL
Ignoring BSIM parameter XW
Warning: Pd = 0 is less than W.
Warning: Ps = 0 is less than W.
Warning: Pd = 0 is less than W.
Warning: Ps = 0 is less than W.
Warning: Pd = 0 is less than W.
Warning: Ps = 0 is less than W.
Warning: Pd = 0 is less than W.
Warning: Ps = 0 is less than W.
Warning: Pd = 0 is less than W.
Warning: Ps = 0 is less than W.
Direct Newton iteration for .op point succeeded.
Semiconductor Device Operating Points:
                        --- Bipolar Transistors ---
Name:     q:x1:2      q:x1:1
Model:    2n3904      2n3904
Ib:       1.57e-09    2.88e-09
Ic:       4.74e-07    8.69e-07
Vbe:      4.57e-01    4.73e-01
Vbc:     -4.44e-01   -4.57e-01
Vce:      9.01e-01    9.30e-01
BetaDC:   3.01e+02    3.01e+02
Gm:       1.83e-05    3.36e-05
Rpi:      1.64e+07    8.97e+06
Rx:       2.00e+01    2.00e+01
Ro:       2.12e+08    1.16e+08
Cbe:      1.08e-11    1.09e-11
Cbc:      3.43e-12    3.42e-12
Cjs:      0.00e+00    0.00e+00
BetaAC:   3.01e+02    3.01e+02
Cbx:      0.00e+00    0.00e+00
Ft:       2.05e+05    3.72e+05

                        --- BSIM3 MOSFETS ---
Name:      m:x1:1      m:x1:8      m:x1:7      m:x1:10     m:x1:2
Model:    x1:cmosn    x1:cmosn    x1:cmosn    x1:cmosp    x1:cmosp
Id:        5.49e-07    2.47e-07    2.47e-07   -4.47e-07   -4.47e-07
Vgs:       4.43e-01    4.43e-01    4.43e-01   -4.26e-01   -4.12e-01
Vds:       1.10e+00    4.43e-01    4.43e-01   -2.86e-01   -1.51e+00
Vbs:       0.00e+00    0.00e+00    0.00e+00    0.00e+00    0.00e+00
Vth:       4.53e-01    4.45e-01    4.45e-01   -5.06e-01   -5.02e-01
Vdsat:     4.79e-02    4.97e-02    4.97e-02   -4.33e-02   -4.25e-02
Gm:        1.25e-05    5.59e-06    5.59e-06    1.02e-05    1.02e-05
Gds:       1.33e-07    7.92e-08    7.92e-08    2.21e-07    8.91e-08
Gmb        3.56e-06    1.63e-06    1.63e-06    3.16e-06    3.15e-06
Cbd:       0.00e+00    0.00e+00    0.00e+00    0.00e+00    0.00e+00
Cbs:       0.00e+00    0.00e+00    0.00e+00    0.00e+00    0.00e+00
Cgsov:     8.23e-16    2.96e-16    2.96e-16    3.18e-15    3.18e-15
Cgdov:     8.23e-16    2.96e-16    2.96e-16    3.18e-15    3.18e-15
Cgbov:     3.26e-19    3.26e-19    3.26e-19    1.21e-19    1.21e-19
dQgdVgb:   3.04e-15    1.13e-15    1.13e-15    7.91e-15    7.84e-15
dQgdVdb:  -8.18e-16   -2.94e-16   -2.94e-16   -3.17e-15   -3.17e-15
dQgdVsb:  -1.76e-15   -6.82e-16   -6.82e-16   -3.66e-15   -3.56e-15
dQddVgb:  -1.22e-15   -4.56e-16   -4.56e-16   -3.37e-15   -3.33e-15
dQddVdb:   8.20e-16    2.95e-16    2.95e-16    3.17e-15    3.17e-15
dQddVsb:   5.19e-16    2.13e-16    2.13e-16    2.55e-16    2.01e-16
dQbdVgb:  -6.09e-16   -2.15e-16   -2.15e-16   -1.17e-15   -1.18e-15
dQbdVdb:   5.01e-19    1.85e-19    1.85e-19   -1.75e-19    4.71e-20
dQbdVsb:  -9.99e-17   -4.06e-17   -4.06e-17   -2.50e-17   -1.97e-17

Name:      m:x1:9      m:x1:6      m:x1:5      m:x1:4      m:x1:3
Model:    x1:cmosp    x1:cmosp    x1:cmosp    x1:cmosp    x1:cmosp
Id:       -5.49e-07   -2.47e-07   -2.47e-07   -4.95e-07   -4.74e-07
Vgs:      -4.26e-01   -4.41e-01   -4.41e-01   -4.26e-01   -4.26e-01
Vds:      -6.97e-01   -7.98e-01   -7.98e-01   -5.59e-01   -4.26e-01
Vbs:       0.00e+00    0.00e+00    0.00e+00    0.00e+00    0.00e+00
Vth:      -4.53e-01   -4.94e-01   -4.94e-01   -5.05e-01   -5.06e-01
Vdsat:    -4.79e-02   -4.58e-02   -4.58e-02   -4.34e-02   -4.34e-02
Gm:        1.21e-05    5.50e-06    5.50e-06    1.12e-05    1.08e-05
Gds:       1.11e-07    6.10e-08    6.10e-08    1.47e-07    1.69e-07
Gmb        3.69e-06    1.68e-06    1.68e-06    3.48e-06    3.34e-06
Cbd:       0.00e+00    0.00e+00    0.00e+00    0.00e+00    0.00e+00
Cbs:       0.00e+00    0.00e+00    0.00e+00    0.00e+00    0.00e+00
Cgsov:     3.18e-15    8.57e-16    8.57e-16    3.18e-15    3.18e-15
Cgdov:     3.18e-15    8.57e-16    8.57e-16    3.18e-15    3.18e-15
Cgbov:     3.01e-19    1.21e-19    1.21e-19    1.21e-19    1.21e-19
dQgdVgb:   1.19e-14    2.21e-15    2.21e-15    7.91e-15    7.91e-15
dQgdVdb:  -3.17e-15   -8.57e-16   -8.57e-16   -3.17e-15   -3.17e-15
dQgdVsb:  -6.61e-15   -1.09e-15   -1.09e-15   -3.67e-15   -3.66e-15
dQddVgb:  -4.57e-15   -9.50e-16   -9.50e-16   -3.37e-15   -3.37e-15
dQddVdb:   3.17e-15    8.57e-16    8.57e-16    3.17e-15    3.17e-15
dQddVsb:   1.85e-15    1.24e-16    1.24e-16    2.59e-16    2.57e-16
dQbdVgb:  -2.72e-15   -3.12e-16   -3.12e-16   -1.17e-15   -1.17e-15
dQbdVdb:   4.79e-19    2.22e-20    2.22e-20    2.45e-20   -1.77e-20
dQbdVsb:  -2.61e-16   -1.04e-17   -1.04e-17   -2.48e-17   -2.48e-17



Date: Mon Oct 29 16:47:09 2018
Total elapsed time: 0.463 seconds.

tnom = 27
temp = 27
method = trap
totiter = 14
traniter = 0
tranpoints = 0
accept = 0
rejected = 0
matrix size = 20
fillins = 6
solver = Normal
Matrix Compiler1:     100 opcodes
Matrix Compiler2: 1.92 KB object code size
