Circuit: * C:\Users\subha\OneDrive\Documents\GitHub\PMIC_Final_Project_Fall_Buck_Converter\tb_error_amplifier_ac.asc

Ignoring BSIM parameter XL
Ignoring BSIM parameter XW
Ignoring BSIM parameter XL
Ignoring BSIM parameter XW
Warning: Pd = 0 is less than W.
Warning: Ps = 0 is less than W.
Warning: Pd = 0 is less than W.
Warning: Ps = 0 is less than W.
Warning: Pd = 0 is less than W.
Warning: Ps = 0 is less than W.
Warning: Pd = 0 is less than W.
Warning: Ps = 0 is less than W.
Warning: Pd = 0 is less than W.
Warning: Ps = 0 is less than W.
Direct Newton iteration for .op point succeeded.
Semiconductor Device Operating Points:
                        --- Bipolar Transistors ---
Name:     q:x1:2      q:x1:1
Model:    2n3904      2n3904
Ib:       1.57e-09    2.88e-09
Ic:       4.74e-07    8.69e-07
Vbe:      4.57e-01    4.73e-01
Vbc:     -4.44e-01   -4.57e-01
Vce:      9.01e-01    9.30e-01
BetaDC:   3.01e+02    3.01e+02
Gm:       1.83e-05    3.36e-05
Rpi:      1.64e+07    8.97e+06
Rx:       2.00e+01    2.00e+01
Ro:       2.12e+08    1.16e+08
Cbe:      1.08e-11    1.09e-11
Cbc:      3.43e-12    3.42e-12
Cjs:      0.00e+00    0.00e+00
BetaAC:   3.01e+02    3.01e+02
Cbx:      0.00e+00    0.00e+00
Ft:       2.05e+05    3.72e+05

                        --- BSIM3 MOSFETS ---
Name:      m:x1:8      m:x1:6      m:x1:5      m:x1:2      m:x1:12
Model:    x1:cmosn    x1:cmosn    x1:cmosn    x1:cmosn    x1:cmosn
Id:        1.48e-06    3.24e-07    3.24e-07    6.48e-07    5.98e-07
Vgs:       4.30e-01    4.06e-01    4.06e-01    4.30e-01    4.30e-01
Vds:       1.15e+00    1.26e+00    1.26e+00    9.40e-02    4.30e-01
Vbs:       0.00e+00   -9.40e-02   -9.40e-02    0.00e+00    0.00e+00
Vth:       4.87e-01    5.03e-01    5.03e-01    4.94e-01    4.84e-01
Vdsat:     4.18e-02    3.93e-02    3.93e-02    4.11e-02    4.20e-02
Gm:        3.41e-05    7.96e-06    7.96e-06    1.55e-05    1.40e-05
Gds:       8.36e-07    1.93e-07    1.93e-07    1.41e-06    4.77e-07
Gmb        9.05e-06    2.10e-06    2.10e-06    4.14e-06    3.78e-06
Cbd:       0.00e+00    0.00e+00    0.00e+00    0.00e+00    0.00e+00
Cbs:       0.00e+00    0.00e+00    0.00e+00    0.00e+00    0.00e+00
Cgsov:     1.65e-15    8.23e-16    8.23e-16    1.65e-15    8.23e-16
Cgdov:     1.65e-15    8.23e-16    8.23e-16    1.65e-15    8.23e-16
Cgbov:     1.46e-19    1.46e-19    1.46e-19    1.46e-19    1.46e-19
dQgdVgb:   4.18e-15    2.00e-15    2.00e-15    4.14e-15    2.10e-15
dQgdVdb:  -1.64e-15   -8.23e-16   -8.23e-16   -1.65e-15   -8.22e-16
dQgdVsb:  -1.99e-15   -8.85e-16   -8.85e-16   -1.93e-15   -1.01e-15
dQddVgb:  -1.79e-15   -8.49e-16   -8.49e-16   -1.77e-15   -8.99e-16
dQddVdb:   1.64e-15    8.23e-16    8.23e-16    1.65e-15    8.22e-16
dQddVsb:   1.86e-16    3.33e-17    3.33e-17    1.58e-16    9.92e-17
dQbdVgb:  -5.99e-16   -2.98e-16   -2.98e-16   -5.98e-16   -2.98e-16
dQbdVdb:   1.65e-19    3.11e-20    3.11e-20   -2.23e-18    7.19e-20
dQbdVsb:  -2.98e-17   -4.89e-18   -4.89e-18   -2.75e-17   -1.58e-17

Name:      m:x1:10     m:x1:9      m:x1:7      m:x1:4      m:x1:3
Model:    x1:cmosp    x1:cmosp    x1:cmosp    x1:cmosp    x1:cmosp
Id:       -4.43e-07   -4.43e-07   -1.48e-06   -3.24e-07   -3.24e-07
Vgs:      -4.26e-01   -3.83e-01   -4.45e-01   -4.45e-01   -4.45e-01
Vds:      -2.66e-01   -1.53e+00   -6.50e-01   -4.45e-01   -4.45e-01
Vbs:       0.00e+00    0.00e+00    0.00e+00    0.00e+00    0.00e+00
Vth:      -5.06e-01   -5.04e-01   -5.07e-01   -4.52e-01   -4.52e-01
Vdsat:    -4.33e-02   -4.10e-02   -4.53e-02   -5.22e-02   -5.22e-02
Gm:        1.01e-05    1.03e-05    3.32e-05    6.96e-06    6.96e-06
Gds:       2.33e-07    8.96e-08    3.94e-07    7.51e-08    7.51e-08
Gmb        3.13e-06    3.26e-06    1.02e-05    2.09e-06    2.09e-06
Cbd:       0.00e+00    0.00e+00    0.00e+00    0.00e+00    0.00e+00
Cbs:       0.00e+00    0.00e+00    0.00e+00    0.00e+00    0.00e+00
Cgsov:     3.18e-15    6.35e-15    6.35e-15    1.27e-15    1.27e-15
Cgdov:     3.18e-15    6.35e-15    6.35e-15    1.27e-15    1.27e-15
Cgbov:     1.21e-19    1.21e-19    1.21e-19    3.01e-19    3.01e-19
dQgdVgb:   7.91e-15    1.54e-14    1.62e-14    5.13e-15    5.13e-15
dQgdVdb:  -3.17e-15   -6.35e-15   -6.35e-15   -1.27e-15   -1.27e-15
dQgdVsb:  -3.66e-15   -6.71e-15   -7.78e-15   -3.16e-15   -3.16e-15
dQddVgb:  -3.37e-15   -6.49e-15   -6.92e-15   -2.04e-15   -2.04e-15
dQddVdb:   3.17e-15    6.35e-15    6.35e-15    1.27e-15    1.27e-15
dQddVsb:   2.55e-16    1.92e-16    7.52e-16    1.01e-15    1.01e-15
dQbdVgb:  -1.17e-15   -2.41e-15   -2.32e-15   -1.06e-15   -1.06e-15
dQbdVdb:  -2.24e-19    4.79e-20    9.87e-20    8.28e-21    8.28e-21
dQbdVsb:  -2.51e-17   -2.05e-17   -7.04e-17   -1.37e-16   -1.37e-16

Name:      m:x1:11     m:x1:1
Model:    x1:cmosp    x1:cmosp
Id:       -5.98e-07   -4.74e-07
Vgs:      -4.26e-01   -4.26e-01
Vds:      -1.37e+00   -4.26e-01
Vbs:       0.00e+00    0.00e+00
Vth:      -5.03e-01   -5.06e-01
Vdsat:    -4.36e-02   -4.34e-02
Gm:        1.35e-05    1.08e-05
Gds:       1.21e-07    1.69e-07
Gmb        4.15e-06    3.34e-06
Cbd:       0.00e+00    0.00e+00
Cbs:       0.00e+00    0.00e+00
Cgsov:     3.18e-15    3.18e-15
Cgdov:     3.18e-15    3.18e-15
Cgbov:     1.21e-19    1.21e-19
dQgdVgb:   7.94e-15    7.91e-15
dQgdVdb:  -3.17e-15   -3.17e-15
dQgdVsb:  -3.70e-15   -3.66e-15
dQddVgb:  -3.38e-15   -3.37e-15
dQddVdb:   3.17e-15    3.17e-15
dQddVsb:   2.75e-16    2.57e-16
dQbdVgb:  -1.17e-15   -1.17e-15
dQbdVdb:   6.17e-20   -1.77e-20
dQbdVsb:  -2.61e-17   -2.48e-17


.step vdc=0.5
.step vdc=0.55
.step vdc=0.6
.step vdc=0.65
.step vdc=0.7
.step vdc=0.75
.step vdc=0.8
.step vdc=0.85
.step vdc=0.9
.step vdc=0.95
.step vdc=1


Measurement: loop_gain_angle
  step	v(vout)	at
     1	(-0.00418886dB,-171.604°)	1.01385e+008
     2	(-0.011742dB,-171.993°)	1.05562e+008
     3	(-0.0112641dB,-171.751°)	1.08101e+008
     4	(-0.0100435dB,-169.85°)	1.08699e+008
     5	(-0.000452156dB,-158.92°)	1.00174e+008
     6	(-0.0053134dB,-131.73°)	7.68627e+007
     7	(-0.0025332dB,-101.655°)	5.40828e+007
     8	(-0.00114518dB,-74.1618°)	3.73844e+007
     9	(-0.000592371dB,-52.4925°)	2.68022e+007
    10	(-0.000355131dB,-38.0224°)	2.20275e+007
    11	(-0.00168277dB,-32.2936°)	2.31424e+007


Date: Sat Nov 03 14:59:04 2018
Total elapsed time: 1.779 seconds.

tnom = 27
temp = 27
method = trap
totiter = 14
traniter = 0
tranpoints = 0
accept = 0
rejected = 0
matrix size = 21
fillins = 8
solver = Normal
Matrix Compiler1:     109 opcodes
Matrix Compiler2: 2.09 KB object code size
