Circuit: * C:\Users\subha\OneDrive\Documents\GitHub\PMIC_Final_Project_Fall_Buck_Converter\tb_error_amplifier_ac.asc

Ignoring BSIM parameter XL
Ignoring BSIM parameter XW
Ignoring BSIM parameter XL
Ignoring BSIM parameter XW
Warning: Pd = 0 is less than W.
Warning: Ps = 0 is less than W.
Warning: Pd = 0 is less than W.
Warning: Ps = 0 is less than W.
Warning: Pd = 0 is less than W.
Warning: Ps = 0 is less than W.
Warning: Pd = 0 is less than W.
Warning: Ps = 0 is less than W.
Direct Newton iteration for .op point succeeded.
Semiconductor Device Operating Points:
                        --- BSIM3 MOSFETS ---
Name:      m:x1:7      m:x1:4      m:x1:3      m:x1:8      m:x1:6
Model:    x1:cmosp    x1:cmosp    x1:cmosp    x1:cmosn    x1:cmosn
Id:       -1.31e-05   -4.77e-06   -4.77e-06    1.31e-05    4.77e-06
Vgs:      -5.76e-01   -5.76e-01   -5.76e-01    5.04e-01    7.68e-01
Vds:      -6.25e-02   -5.76e-01   -5.76e-01    1.74e+00    1.92e-01
Vbs:       0.00e+00    0.00e+00    0.00e+00    0.00e+00   -1.03e+00
Vth:      -5.09e-01   -5.00e-01   -5.00e-01    4.85e-01    7.30e-01
Vdsat:    -8.47e-02   -8.86e-02   -8.86e-02    5.68e-02    7.12e-02
Gm:        1.95e-04    7.90e-05    7.90e-05    2.52e-04    9.33e-05
Gds:       1.09e-04    1.18e-06    1.18e-06    5.40e-06    5.31e-06
Gmb        5.89e-05    2.33e-05    2.33e-05    6.41e-05    1.86e-05
Cbd:       0.00e+00    0.00e+00    0.00e+00    0.00e+00    0.00e+00
Cbs:       0.00e+00    0.00e+00    0.00e+00    0.00e+00    0.00e+00
Cgsov:     6.35e-15    1.27e-15    1.27e-15    2.47e-15    8.23e-16
Cgdov:     6.35e-15    1.27e-15    1.27e-15    2.47e-15    8.23e-16
Cgbov:     1.21e-19    1.21e-19    1.21e-19    1.46e-19    1.46e-19
dQgdVgb:   2.08e-14    4.15e-15    4.15e-15    7.27e-15    2.49e-15
dQgdVdb:  -6.74e-15   -1.27e-15   -1.27e-15   -2.46e-15   -8.20e-16
dQgdVsb:  -1.36e-14   -2.78e-15   -2.78e-15   -4.30e-15   -1.58e-15
dQddVgb:  -9.58e-15   -1.87e-15   -1.87e-15   -3.24e-15   -1.14e-15
dQddVdb:   6.83e-15    1.27e-15    1.27e-15    2.46e-15    8.22e-16
dQddVsb:   3.76e-15    7.84e-16    7.84e-16    9.90e-16    3.79e-16
dQbdVgb:  -1.68e-15   -4.17e-16   -4.17e-16   -8.00e-16   -2.14e-16
dQbdVdb:  -5.63e-16   -1.19e-19   -1.19e-19    8.04e-19   -1.89e-18
dQbdVsb:  -2.53e-16   -5.62e-17   -5.62e-17   -1.48e-16   -4.69e-18

Name:      m:x1:5      m:x1:2      m:x1:12
Model:    x1:cmosn    x1:cmosn    x1:cmosn
Id:        4.77e-06    9.54e-06    3.24e-06
Vgs:       7.68e-01    5.04e-01    5.04e-01
Vds:       1.92e-01    1.03e+00    5.04e-01
Vbs:      -1.03e+00    0.00e+00    0.00e+00
Vth:       7.30e-01    4.90e-01    4.83e-01
Vdsat:     7.12e-02    5.53e-02    5.71e-02
Gm:        9.33e-05    1.92e-04    6.62e-05
Gds:       5.31e-06    4.76e-06    2.08e-06
Gmb        1.86e-05    4.92e-05    1.73e-05
Cbd:       0.00e+00    0.00e+00    0.00e+00
Cbs:       0.00e+00    0.00e+00    0.00e+00
Cgsov:     8.23e-16    2.47e-15    8.23e-16
Cgdov:     8.23e-16    2.47e-15    8.23e-16
Cgbov:     1.46e-19    1.46e-19    1.46e-19
dQgdVgb:   2.49e-15    7.20e-15    2.44e-15
dQgdVdb:  -8.20e-16   -2.46e-15   -8.19e-16
dQgdVsb:  -1.58e-15   -4.21e-15   -1.45e-15
dQddVgb:  -1.14e-15   -3.20e-15   -1.08e-15
dQddVdb:   8.22e-16    2.46e-15    8.21e-16
dQddVsb:   3.79e-16    9.40e-16    3.40e-16
dQbdVgb:  -2.14e-16   -8.06e-16   -2.66e-16
dQbdVdb:  -1.89e-18    7.36e-19    2.25e-19
dQbdVsb:  -4.69e-18   -1.40e-16   -4.99e-17



loop_gain_angle: v(vout)=(-0.00267849dB,-113.255°) at 4.15014e+008
gain_margin: v(vout)=(-12.5461dB,-178.628°) at 1.88793e+009


Date: Thu Nov 08 04:40:11 2018
Total elapsed time: 0.385 seconds.

tnom = 27
temp = 27
method = trap
totiter = 10
traniter = 0
tranpoints = 0
accept = 0
rejected = 0
matrix size = 12
fillins = 2
solver = Normal
Matrix Compiler1:      45 opcodes
Matrix Compiler2: 1.08 KB object code size
