Circuit: * C:\Users\subha\OneDrive\Documents\GitHub\PMIC_Final_Project_Fall_Buck_Converter\tb_error_amplifier.asc

Ignoring BSIM parameter XL
Ignoring BSIM parameter XW
Ignoring BSIM parameter XL
Ignoring BSIM parameter XW
Warning: Pd = 0 is less than W.
Warning: Ps = 0 is less than W.
Warning: Pd = 0 is less than W.
Warning: Ps = 0 is less than W.
Warning: Pd = 0 is less than W.
Warning: Ps = 0 is less than W.
Warning: Pd = 0 is less than W.
Warning: Ps = 0 is less than W.
Direct Newton iteration for .op point succeeded.
Semiconductor Device Operating Points:
                        --- Bipolar Transistors ---
Name:     q:x1:2      q:x1:1
Model:    2n3904      2n3904
Ib:       1.57e-09    2.88e-09
Ic:       4.74e-07    8.69e-07
Vbe:      4.57e-01    4.73e-01
Vbc:     -4.44e-01   -4.57e-01
Vce:      9.01e-01    9.30e-01
BetaDC:   3.01e+02    3.01e+02
Gm:       1.83e-05    3.36e-05
Rpi:      1.64e+07    8.97e+06
Rx:       2.00e+01    2.00e+01
Ro:       2.12e+08    1.16e+08
Cbe:      1.08e-11    1.09e-11
Cbc:      3.43e-12    3.42e-12
Cjs:      0.00e+00    0.00e+00
BetaAC:   3.01e+02    3.01e+02
Cbx:      0.00e+00    0.00e+00
Ft:       2.05e+05    3.72e+05

                        --- BSIM3 MOSFETS ---
Name:      m:x1:1      m:x1:8      m:x1:7      m:x1:10     m:x1:2
Model:    x1:cmosn    x1:cmosn    x1:cmosn    x1:cmosp    x1:cmosp
Id:        5.57e-07    2.47e-07    2.47e-07   -5.03e-07   -5.03e-07
Vgs:       4.16e-01    4.16e-01    4.16e-01   -4.26e-01   -4.20e-01
Vds:       7.66e-01    4.16e-01    4.16e-01   -6.14e-01   -1.19e+00
Vbs:       0.00e+00    0.00e+00    0.00e+00    0.00e+00    0.00e+00
Vth:       4.81e-01    4.58e-01    4.58e-01   -5.05e-01   -5.03e-01
Vdsat:     4.09e-02    4.21e-02    4.21e-02   -4.34e-02   -4.31e-02
Gm:        1.31e-05    5.88e-06    5.88e-06    1.14e-05    1.14e-05
Gds:       3.77e-07    7.76e-08    7.76e-08    1.41e-07    1.07e-07
Gmb        3.55e-06    1.70e-06    1.70e-06    3.53e-06    3.53e-06
Cbd:       0.00e+00    0.00e+00    0.00e+00    0.00e+00    0.00e+00
Cbs:       0.00e+00    0.00e+00    0.00e+00    0.00e+00    0.00e+00
Cgsov:     8.23e-16    8.23e-16    8.23e-16    3.18e-15    3.18e-15
Cgdov:     8.23e-16    8.23e-16    8.23e-16    3.18e-15    3.18e-15
Cgbov:     1.46e-19    3.26e-19    3.26e-19    1.21e-19    1.21e-19
dQgdVgb:   2.07e-15    2.73e-15    2.73e-15    7.92e-15    7.88e-15
dQgdVdb:  -8.22e-16   -8.20e-16   -8.20e-16   -3.17e-15   -3.17e-15
dQgdVsb:  -9.66e-16   -1.35e-15   -1.35e-15   -3.67e-15   -3.63e-15
dQddVgb:  -8.82e-16   -1.04e-15   -1.04e-15   -3.37e-15   -3.35e-15
dQddVdb:   8.23e-16    8.22e-16    8.22e-16    3.17e-15    3.17e-15
dQddVsb:   7.77e-17    2.93e-16    2.93e-16    2.60e-16    2.37e-16
dQbdVgb:  -3.02e-16   -6.45e-16   -6.45e-16   -1.17e-15   -1.18e-15
dQbdVdb:   7.57e-20    2.07e-19    2.07e-19    3.32e-20    5.25e-20
dQbdVsb:  -1.25e-17   -5.81e-17   -5.81e-17   -2.49e-17   -2.28e-17

Name:      m:x1:9      m:x1:6      m:x1:5      m:x1:4      m:x1:3
Model:    x1:cmosp    x1:cmosp    x1:cmosp    x1:cmosp    x1:cmosp
Id:       -5.57e-07   -2.47e-07   -2.47e-07   -4.95e-07   -4.74e-07
Vgs:      -4.26e-01   -4.41e-01   -4.41e-01   -4.26e-01   -4.26e-01
Vds:      -1.03e+00   -8.24e-01   -8.24e-01   -5.59e-01   -4.26e-01
Vbs:       0.00e+00    0.00e+00    0.00e+00    0.00e+00    0.00e+00
Vth:      -5.04e-01   -4.94e-01   -4.94e-01   -5.05e-01   -5.06e-01
Vdsat:    -4.36e-02   -4.57e-02   -4.57e-02   -4.34e-02   -4.34e-02
Gm:        1.26e-05    5.50e-06    5.50e-06    1.12e-05    1.08e-05
Gds:       1.23e-07    6.02e-08    6.02e-08    1.47e-07    1.69e-07
Gmb        3.89e-06    1.68e-06    1.68e-06    3.48e-06    3.34e-06
Cbd:       0.00e+00    0.00e+00    0.00e+00    0.00e+00    0.00e+00
Cbs:       0.00e+00    0.00e+00    0.00e+00    0.00e+00    0.00e+00
Cgsov:     3.18e-15    8.57e-16    8.57e-16    3.18e-15    3.18e-15
Cgdov:     3.18e-15    8.57e-16    8.57e-16    3.18e-15    3.18e-15
Cgbov:     1.21e-19    1.21e-19    1.21e-19    1.21e-19    1.21e-19
dQgdVgb:   7.93e-15    2.21e-15    2.21e-15    7.91e-15    7.91e-15
dQgdVdb:  -3.17e-15   -8.57e-16   -8.57e-16   -3.17e-15   -3.17e-15
dQgdVsb:  -3.69e-15   -1.09e-15   -1.09e-15   -3.67e-15   -3.66e-15
dQddVgb:  -3.38e-15   -9.50e-16   -9.50e-16   -3.37e-15   -3.37e-15
dQddVdb:   3.17e-15    8.57e-16    8.57e-16    3.17e-15    3.17e-15
dQddVsb:   2.68e-16    1.23e-16    1.23e-16    2.59e-16    2.57e-16
dQbdVgb:  -1.17e-15   -3.12e-16   -3.12e-16   -1.17e-15   -1.17e-15
dQbdVdb:   5.66e-20    2.27e-20    2.27e-20    2.46e-20   -1.77e-20
dQbdVsb:  -2.55e-17   -1.04e-17   -1.04e-17   -2.48e-17   -2.48e-17



Date: Mon Oct 29 18:57:24 2018
Total elapsed time: 0.363 seconds.

tnom = 27
temp = 27
method = trap
totiter = 14
traniter = 0
tranpoints = 0
accept = 0
rejected = 0
matrix size = 20
fillins = 6
solver = Normal
Matrix Compiler1:     100 opcodes
Matrix Compiler2: 1.92 KB object code size
