Circuit: * C:\Users\subha\OneDrive\Documents\GitHub\PMIC_Final_Project_Fall_Buck_Converter\tb_error_amplifier_ac.asc

Ignoring BSIM parameter XL
Ignoring BSIM parameter XW
Ignoring BSIM parameter XL
Ignoring BSIM parameter XW
Warning: Pd = 0 is less than W.
Warning: Ps = 0 is less than W.
Warning: Pd = 0 is less than W.
Warning: Ps = 0 is less than W.
Warning: Pd = 0 is less than W.
Warning: Ps = 0 is less than W.
Warning: Pd = 0 is less than W.
Warning: Ps = 0 is less than W.
Warning: Pd = 0 is less than W.
Warning: Ps = 0 is less than W.
Warning: Pd = 0 is less than W.
Warning: Ps = 0 is less than W.
Direct Newton iteration for .op point succeeded.
Semiconductor Device Operating Points:
                        --- BSIM3 MOSFETS ---
Name:      m:x1:7      m:x1:4      m:x1:3      m:x1:8      m:x1:6
Model:    x1:cmosp    x1:cmosp    x1:cmosp    x1:cmosn    x1:cmosn
Id:       -9.19e-06   -1.36e-06   -1.36e-06    9.19e-06    1.36e-06
Vgs:      -5.20e-01   -5.20e-01   -5.20e-01    5.76e-01    4.95e-01
Vds:      -1.77e+00   -5.20e-01   -5.20e-01    2.85e-02    1.28e+00
Vbs:       0.00e+00    0.00e+00    0.00e+00    0.00e+00   -4.51e-03
Vth:      -5.04e-01   -4.28e-01   -4.28e-01    4.97e-01    4.17e-01
Vdsat:    -6.29e-02   -9.20e-02   -9.20e-02    7.94e-02    7.94e-02
Gm:        1.82e-04    2.16e-05    2.16e-05    1.20e-04    2.42e-05
Gds:       1.41e-06    1.77e-07    1.77e-07    2.58e-04    1.67e-07
Gmb        5.42e-05    6.53e-06    6.53e-06    3.08e-05    6.96e-06
Cbd:       0.00e+00    0.00e+00    0.00e+00    0.00e+00    0.00e+00
Cbs:       0.00e+00    0.00e+00    0.00e+00    0.00e+00    0.00e+00
Cgsov:     6.35e-15    1.91e-15    1.91e-15    2.47e-15    8.23e-16
Cgdov:     6.35e-15    1.91e-15    1.91e-15    2.47e-15    8.23e-16
Cgbov:     1.21e-19    6.61e-19    6.61e-19    1.46e-19    6.86e-19
dQgdVgb:   1.90e-14    1.70e-14    1.70e-14    8.19e-15    6.15e-15
dQgdVdb:  -6.34e-15   -1.88e-15   -1.88e-15   -3.02e-15   -8.07e-16
dQgdVsb:  -1.15e-14   -1.43e-14   -1.43e-14   -4.92e-15   -4.92e-15
dQddVgb:  -8.40e-15   -7.03e-15   -7.03e-15   -3.92e-15   -2.55e-15
dQddVdb:   6.34e-15    1.89e-15    1.89e-15    3.12e-15    8.14e-16
dQddVsb:   2.70e-15    6.75e-15    6.75e-15    1.20e-15    2.29e-15
dQbdVgb:  -2.16e-15   -2.90e-15   -2.90e-15   -3.52e-16   -1.04e-15
dQbdVdb:   5.25e-19   -5.47e-19   -5.47e-19   -7.51e-16    1.99e-18
dQbdVsb:  -2.20e-16   -1.12e-15   -1.12e-15    4.63e-17   -4.86e-16

Name:      m:x1:5      m:x1:2      m:x1:12
Model:    x1:cmosn    x1:cmosn    x1:cmosn
Id:        1.36e-06    2.72e-06    1.22e-05
Vgs:       4.95e-01    5.76e-01    5.76e-01
Vds:       1.28e+00    4.51e-03    5.76e-01
Vbs:      -4.51e-03    0.00e+00    0.00e+00
Vth:       4.17e-01    5.00e-01    4.83e-01
Vdsat:     7.94e-02    7.87e-02    8.53e-02
Gm:        2.42e-05    3.30e-05    1.85e-04
Gds:       1.67e-07    5.85e-04    5.70e-06
Gmb        6.96e-06    8.49e-06    4.76e-05
Cbd:       0.00e+00    0.00e+00    0.00e+00
Cbs:       0.00e+00    0.00e+00    0.00e+00
Cgsov:     8.23e-16    4.12e-15    8.23e-16
Cgdov:     8.23e-16    4.12e-15    8.23e-16
Cgbov:     6.86e-19    1.46e-19    1.46e-19
dQgdVgb:   6.15e-15    1.39e-14    2.66e-15
dQgdVdb:  -8.07e-16   -5.86e-15   -8.17e-16
dQgdVsb:  -4.92e-15   -7.64e-15   -1.74e-15
dQddVgb:  -2.55e-15   -6.81e-15   -1.20e-15
dQddVdb:   8.14e-16    6.17e-15    8.20e-16
dQddVsb:   2.29e-15    1.39e-15    4.93e-16
dQbdVgb:  -1.04e-15   -2.50e-16   -2.47e-16
dQbdVdb:   1.99e-18   -2.37e-15    2.65e-19
dQbdVsb:  -4.86e-16    7.57e-16   -6.94e-17



loop_gain_angle: v(vout)=(-0.000157674dB,-94.7426°) at 9.79476e+007
gain_margin: v(vout)=(-20.4525dB,178.375°) at 1.68418e+009


Date: Tue Nov 13 14:32:42 2018
Total elapsed time: 0.307 seconds.

tnom = 27
temp = 27
method = trap
totiter = 15
traniter = 0
tranpoints = 0
accept = 0
rejected = 0
matrix size = 11
fillins = 2
solver = Normal
Matrix Compiler1:      38 opcodes
Matrix Compiler2: 1003 bytes object code size
