Circuit: * C:\Users\subha\OneDrive\Documents\GitHub\PMIC_Final_Project_Fall_Buck_Converter\tb_error_amplifier.asc

Ignoring BSIM parameter XL
Ignoring BSIM parameter XW
Ignoring BSIM parameter XL
Ignoring BSIM parameter XW
Warning: Pd = 0 is less than W.
Warning: Ps = 0 is less than W.
Warning: Pd = 0 is less than W.
Warning: Ps = 0 is less than W.
Warning: Pd = 0 is less than W.
Warning: Ps = 0 is less than W.
Warning: Pd = 0 is less than W.
Warning: Ps = 0 is less than W.
Direct Newton iteration for .op point succeeded.
Semiconductor Device Operating Points:
                        --- Bipolar Transistors ---
Name:     q:x1:2      q:x1:1
Model:    2n3904      2n3904
Ib:       1.57e-09    2.88e-09
Ic:       4.74e-07    8.69e-07
Vbe:      4.57e-01    4.73e-01
Vbc:     -4.44e-01   -4.57e-01
Vce:      9.01e-01    9.30e-01
BetaDC:   3.01e+02    3.01e+02
Gm:       1.83e-05    3.36e-05
Rpi:      1.64e+07    8.97e+06
Rx:       2.00e+01    2.00e+01
Ro:       2.12e+08    1.16e+08
Cbe:      1.08e-11    1.09e-11
Cbc:      3.43e-12    3.42e-12
Cjs:      0.00e+00    0.00e+00
BetaAC:   3.01e+02    3.01e+02
Cbx:      0.00e+00    0.00e+00
Ft:       2.05e+05    3.72e+05

                        --- BSIM3 MOSFETS ---
Name:      m:x1:16     m:x1:15     m:x1:12     m:x1:1      m:x1:8
Model:    x1:cmosn    x1:cmosn    x1:cmosn    x1:cmosn    x1:cmosn
Id:        6.02e-07    6.02e-07    5.98e-07    6.23e-07    2.47e-07
Vgs:       4.04e-01    4.30e-01    4.30e-01    4.39e-01    4.16e-01
Vds:       1.36e+00    4.39e-01    4.30e-01    2.23e-01    4.16e-01
Vbs:       0.00e+00    0.00e+00    0.00e+00    0.00e+00    0.00e+00
Vth:       4.76e-01    4.84e-01    4.84e-01    4.86e-01    4.58e-01
Vdsat:     4.03e-02    4.20e-02    4.20e-02    4.29e-02    4.21e-02
Gm:        1.41e-05    1.41e-05    1.40e-05    1.46e-05    5.88e-06
Gds:       3.40e-07    4.77e-07    4.77e-07    6.41e-07    7.76e-08
Gmb        3.84e-06    3.81e-06    3.78e-06    3.93e-06    1.70e-06
Cbd:       0.00e+00    0.00e+00    0.00e+00    0.00e+00    0.00e+00
Cbs:       0.00e+00    0.00e+00    0.00e+00    0.00e+00    0.00e+00
Cgsov:     8.23e-16    8.23e-16    8.23e-16    8.23e-16    8.23e-16
Cgdov:     8.23e-16    8.23e-16    8.23e-16    8.23e-16    8.23e-16
Cgbov:     1.46e-19    1.46e-19    1.46e-19    1.46e-19    3.26e-19
dQgdVgb:   2.05e-15    2.10e-15    2.10e-15    2.12e-15    2.73e-15
dQgdVdb:  -8.22e-16   -8.22e-16   -8.22e-16   -8.22e-16   -8.20e-16
dQgdVsb:  -9.43e-16   -1.01e-15   -1.01e-15   -1.04e-15   -1.35e-15
dQddVgb:  -8.73e-16   -8.99e-16   -8.99e-16   -9.14e-16   -1.04e-15
dQddVdb:   8.23e-16    8.22e-16    8.22e-16    8.22e-16    8.22e-16
dQddVsb:   6.52e-17    9.94e-17    9.92e-17    1.18e-16    2.93e-16
dQbdVgb:  -3.05e-16   -2.98e-16   -2.98e-16   -2.94e-16   -6.45e-16
dQbdVdb:   6.75e-20    7.37e-20    7.19e-20   -9.56e-20    2.07e-19
dQbdVsb:  -1.07e-17   -1.58e-17   -1.58e-17   -1.89e-17   -5.81e-17

Name:      m:x1:7      m:x1:14     m:x1:13     m:x1:11     m:x1:10
Model:    x1:cmosn    x1:cmosp    x1:cmosp    x1:cmosp    x1:cmosp
Id:        2.47e-07   -5.47e-07   -5.47e-07   -5.98e-07   -5.71e-07
Vgs:       4.16e-01   -4.26e-01   -4.27e-01   -4.26e-01   -4.26e-01
Vds:       4.16e-01   -9.56e-01   -8.44e-01   -1.37e+00   -1.15e+00
Vbs:       0.00e+00    0.00e+00    0.00e+00    0.00e+00    0.00e+00
Vth:       4.58e-01   -5.04e-01   -5.05e-01   -5.03e-01   -5.04e-01
Vdsat:     4.21e-02   -4.35e-02   -4.36e-02   -4.36e-02   -4.36e-02
Gm:        5.88e-06    1.24e-05    1.24e-05    1.35e-05    1.29e-05
Gds:       7.76e-08    1.24e-07    1.31e-07    1.21e-07    1.22e-07
Gmb        1.70e-06    3.83e-06    3.83e-06    4.15e-06    3.98e-06
Cbd:       0.00e+00    0.00e+00    0.00e+00    0.00e+00    0.00e+00
Cbs:       0.00e+00    0.00e+00    0.00e+00    0.00e+00    0.00e+00
Cgsov:     8.23e-16    3.18e-15    3.18e-15    3.18e-15    3.18e-15
Cgdov:     8.23e-16    3.18e-15    3.18e-15    3.18e-15    3.18e-15
Cgbov:     3.26e-19    1.21e-19    1.21e-19    1.21e-19    1.21e-19
dQgdVgb:   2.73e-15    7.93e-15    7.93e-15    7.94e-15    7.93e-15
dQgdVdb:  -8.20e-16   -3.17e-15   -3.17e-15   -3.17e-15   -3.17e-15
dQgdVsb:  -1.35e-15   -3.68e-15   -3.69e-15   -3.70e-15   -3.69e-15
dQddVgb:  -1.04e-15   -3.38e-15   -3.38e-15   -3.38e-15   -3.38e-15
dQddVdb:   8.22e-16    3.17e-15    3.17e-15    3.17e-15    3.17e-15
dQddVsb:   2.93e-16    2.67e-16    2.72e-16    2.75e-16    2.70e-16
dQbdVgb:  -6.45e-16   -1.17e-15   -1.17e-15   -1.17e-15   -1.17e-15
dQbdVdb:   2.07e-19    5.47e-20    5.19e-20    6.17e-20    5.87e-20
dQbdVsb:  -5.81e-17   -2.54e-17   -2.58e-17   -2.61e-17   -2.57e-17

Name:      m:x1:2      m:x1:9      m:x1:6      m:x1:5      m:x1:4
Model:    x1:cmosp    x1:cmosp    x1:cmosp    x1:cmosp    x1:cmosp
Id:       -5.71e-07   -6.23e-07   -2.47e-07   -2.47e-07   -4.95e-07
Vgs:      -4.31e-01   -4.26e-01   -4.41e-01   -4.41e-01   -4.26e-01
Vds:      -6.54e-01   -1.58e+00   -8.24e-01   -8.24e-01   -5.59e-01
Vbs:       0.00e+00    0.00e+00    0.00e+00    0.00e+00    0.00e+00
Vth:      -5.05e-01   -5.02e-01   -4.94e-01   -4.94e-01   -5.05e-01
Vdsat:    -4.39e-02   -4.37e-02   -4.57e-02   -4.57e-02   -4.34e-02
Gm:        1.29e-05    1.40e-05    5.50e-06    5.50e-06    1.12e-05
Gds:       1.54e-07    1.21e-07    6.02e-08    6.02e-08    1.47e-07
Gmb        3.98e-06    4.31e-06    1.68e-06    1.68e-06    3.48e-06
Cbd:       0.00e+00    0.00e+00    0.00e+00    0.00e+00    0.00e+00
Cbs:       0.00e+00    0.00e+00    0.00e+00    0.00e+00    0.00e+00
Cgsov:     3.18e-15    3.18e-15    8.57e-16    8.57e-16    3.18e-15
Cgdov:     3.18e-15    3.18e-15    8.57e-16    8.57e-16    3.18e-15
Cgbov:     1.21e-19    1.21e-19    1.21e-19    1.21e-19    1.21e-19
dQgdVgb:   7.96e-15    7.94e-15    2.21e-15    2.21e-15    7.91e-15
dQgdVdb:  -3.17e-15   -3.17e-15   -8.57e-16   -8.57e-16   -3.17e-15
dQgdVsb:  -3.73e-15   -3.71e-15   -1.09e-15   -1.09e-15   -3.67e-15
dQddVgb:  -3.40e-15   -3.38e-15   -9.50e-16   -9.50e-16   -3.37e-15
dQddVdb:   3.17e-15    3.17e-15    8.57e-16    8.57e-16    3.17e-15
dQddVsb:   2.93e-16    2.79e-16    1.23e-16    1.23e-16    2.59e-16
dQbdVgb:  -1.17e-15   -1.17e-15   -3.12e-16   -3.12e-16   -1.17e-15
dQbdVdb:   4.16e-20    6.36e-20    2.27e-20    2.27e-20    2.46e-20
dQbdVsb:  -2.76e-17   -2.65e-17   -1.04e-17   -1.04e-17   -2.48e-17

Name:      m:x1:3
Model:    x1:cmosp
Id:       -4.74e-07
Vgs:      -4.26e-01
Vds:      -4.26e-01
Vbs:       0.00e+00
Vth:      -5.06e-01
Vdsat:    -4.34e-02
Gm:        1.08e-05
Gds:       1.69e-07
Gmb        3.34e-06
Cbd:       0.00e+00
Cbs:       0.00e+00
Cgsov:     3.18e-15
Cgdov:     3.18e-15
Cgbov:     1.21e-19
dQgdVgb:   7.91e-15
dQgdVdb:  -3.17e-15
dQgdVsb:  -3.66e-15
dQddVgb:  -3.37e-15
dQddVdb:   3.17e-15
dQddVsb:   2.57e-16
dQbdVgb:  -1.17e-15
dQbdVdb:  -1.77e-20
dQbdVsb:  -2.48e-17



Date: Tue Oct 30 21:50:29 2018
Total elapsed time: 0.338 seconds.

tnom = 27
temp = 27
method = trap
totiter = 14
traniter = 0
tranpoints = 0
accept = 0
rejected = 0
matrix size = 23
fillins = 8
solver = Normal
Matrix Compiler1:     124 opcodes
Matrix Compiler2: 2.34 KB object code size
