Circuit: * C:\Users\subha\OneDrive\Documents\GitHub\PMIC_Final_Project_Fall_Buck_Converter\tb_error_amplifier_ac.asc

Ignoring BSIM parameter XL
Ignoring BSIM parameter XW
Ignoring BSIM parameter XL
Ignoring BSIM parameter XW
Warning: Pd = 0 is less than W.
Warning: Ps = 0 is less than W.
Warning: Pd = 0 is less than W.
Warning: Ps = 0 is less than W.
Warning: Pd = 0 is less than W.
Warning: Ps = 0 is less than W.
Warning: Pd = 0 is less than W.
Warning: Ps = 0 is less than W.
Warning: Pd = 0 is less than W.
Warning: Ps = 0 is less than W.
Direct Newton iteration for .op point succeeded.
Semiconductor Device Operating Points:
                        --- BSIM3 MOSFETS ---
Name:      m:x1:7      m:x1:4      m:x1:3      m:x1:8      m:x1:6
Model:    x1:cmosp    x1:cmosp    x1:cmosp    x1:cmosn    x1:cmosn
Id:       -9.91e-06   -5.19e-06   -5.19e-06    9.91e-06    5.19e-06
Vgs:      -5.77e-01   -5.77e-01   -5.77e-01    5.37e-01    4.60e-01
Vds:      -2.73e-01   -5.77e-01   -5.77e-01    1.53e+00    1.18e+00
Vbs:       0.00e+00    0.00e+00    0.00e+00    0.00e+00   -4.00e-02
Vth:      -5.06e-01   -4.53e-01   -4.53e-01    4.75e-01    4.72e-01
Vdsat:    -8.61e-02   -1.15e-01   -1.15e-01    7.22e-02    4.82e-02
Gm:        1.67e-04    7.00e-05    7.00e-05    1.62e-04    1.18e-04
Gds:       5.41e-06    7.94e-07    7.94e-07    3.88e-06    1.17e-06
Gmb        4.97e-05    2.08e-05    2.08e-05    4.16e-05    3.27e-05
Cbd:       0.00e+00    0.00e+00    0.00e+00    0.00e+00    0.00e+00
Cbs:       0.00e+00    0.00e+00    0.00e+00    0.00e+00    0.00e+00
Cgsov:     3.18e-15    1.91e-15    1.91e-15    8.23e-16    8.23e-15
Cgdov:     3.18e-15    1.91e-15    1.91e-15    8.23e-16    8.23e-15
Cgbov:     1.21e-19    3.01e-19    3.01e-19    1.46e-19    3.26e-19
dQgdVgb:   1.03e-14    1.01e-14    1.01e-14    2.59e-15    3.01e-14
dQgdVdb:  -3.17e-15   -1.89e-15   -1.89e-15   -8.18e-16   -8.19e-15
dQgdVsb:  -6.88e-15   -7.92e-15   -7.92e-15   -1.66e-15   -1.74e-14
dQddVgb:  -4.65e-15   -4.35e-15   -4.35e-15   -1.17e-15   -1.21e-14
dQddVdb:   3.18e-15    1.90e-15    1.90e-15    8.20e-16    8.21e-15
dQddVsb:   1.93e-15    3.21e-15    3.21e-15    4.50e-16    5.04e-15
dQbdVgb:  -1.03e-15   -1.39e-15   -1.39e-15   -2.53e-16   -6.00e-15
dQbdVdb:  -5.48e-18   -5.86e-19   -5.86e-19    4.19e-19    4.23e-18
dQbdVsb:  -1.51e-16   -4.03e-16   -4.03e-16   -6.48e-17   -9.39e-16

Name:      m:x1:5      m:x1:2      m:x1:12
Model:    x1:cmosn    x1:cmosn    x1:cmosn
Id:        5.19e-06    1.04e-05    6.31e-06
Vgs:       4.60e-01    5.37e-01    5.37e-01
Vds:       1.18e+00    4.00e-02    5.37e-01
Vbs:      -4.00e-02    0.00e+00    0.00e+00
Vth:       4.72e-01    4.99e-01    4.83e-01
Vdsat:     4.82e-02    6.33e-02    6.89e-02
Gm:        1.18e-04    1.79e-04    1.15e-04
Gds:       1.17e-06    1.61e-04    3.52e-06
Gmb        3.27e-05    4.60e-05    2.97e-05
Cbd:       0.00e+00    0.00e+00    0.00e+00
Cbs:       0.00e+00    0.00e+00    0.00e+00
Cgsov:     8.23e-15    4.12e-15    8.23e-16
Cgdov:     8.23e-15    4.12e-15    8.23e-16
Cgbov:     3.26e-19    1.46e-19    1.46e-19
dQgdVgb:   3.01e-14    1.28e-14    2.57e-15
dQgdVdb:  -8.19e-15   -4.41e-15   -8.18e-16
dQgdVsb:  -1.74e-14   -7.70e-15   -1.63e-15
dQddVgb:  -1.21e-14   -5.89e-15   -1.16e-15
dQddVdb:   8.21e-15    4.48e-15    8.20e-16
dQddVsb:   5.04e-15    1.91e-15    4.34e-16
dQbdVgb:  -6.00e-15   -1.00e-15   -2.54e-16
dQbdVdb:   4.23e-18   -4.25e-16    2.65e-19
dQbdVsb:  -9.39e-16   -2.32e-16   -6.24e-17



loop_gain_angle: v(vout)=(-0.0124929dB,93.7202°) at 3.69386e+009
gain_margin: v(vout)=(11.5411dB,178.695°) at 8.44043e+008


Date: Tue Nov 13 14:39:28 2018
Total elapsed time: 0.248 seconds.

tnom = 27
temp = 27
method = trap
totiter = 13
traniter = 0
tranpoints = 0
accept = 0
rejected = 0
matrix size = 11
fillins = 2
solver = Normal
Matrix Compiler1:      38 opcodes
Matrix Compiler2: 1003 bytes object code size
