Circuit: * C:\Users\subha\OneDrive\Documents\GitHub\PMIC_Final_Project_Fall_Buck_Converter\tb_error_amplifier.asc

Ignoring BSIM parameter XL
Ignoring BSIM parameter XW
Ignoring BSIM parameter XL
Ignoring BSIM parameter XW
Warning: Pd = 0 is less than W.
Warning: Ps = 0 is less than W.
Warning: Pd = 0 is less than W.
Warning: Ps = 0 is less than W.
Warning: Pd = 0 is less than W.
Warning: Ps = 0 is less than W.
Warning: Pd = 0 is less than W.
Warning: Ps = 0 is less than W.
Warning: Pd = 0 is less than W.
Warning: Ps = 0 is less than W.
Warning: Pd = 0 is less than W.
Warning: Ps = 0 is less than W.
Warning: Pd = 0 is less than W.
Warning: Ps = 0 is less than W.
Direct Newton iteration for .op point succeeded.
Semiconductor Device Operating Points:
                        --- Bipolar Transistors ---
Name:     q:x1:2      q:x1:1
Model:    2n3904      2n3904
Ib:       1.57e-09    2.88e-09
Ic:       4.74e-07    8.69e-07
Vbe:      4.57e-01    4.73e-01
Vbc:     -4.44e-01   -4.57e-01
Vce:      9.01e-01    9.30e-01
BetaDC:   3.01e+02    3.01e+02
Gm:       1.83e-05    3.36e-05
Rpi:      1.64e+07    8.97e+06
Rx:       2.00e+01    2.00e+01
Ro:       2.12e+08    1.16e+08
Cbe:      1.08e-11    1.09e-11
Cbc:      3.43e-12    3.42e-12
Cjs:      0.00e+00    0.00e+00
BetaAC:   3.01e+02    3.01e+02
Cbx:      0.00e+00    0.00e+00
Ft:       2.05e+05    3.72e+05

                        --- BSIM3 MOSFETS ---
Name:      m:x1:14     m:x1:13     m:x1:11     m:x1:1      m:x1:8
Model:    x1:cmosn    x1:cmosn    x1:cmosn    x1:cmosn    x1:cmosn
Id:        5.86e-07    5.98e-07    5.86e-07    6.70e-07    2.47e-07
Vgs:       4.30e-01    4.30e-01    3.30e-01    7.14e-01    3.84e-01
Vds:       3.84e-01    4.30e-01    1.42e+00    3.13e-03    7.14e-01
Vbs:       0.00e+00    0.00e+00    0.00e+00    0.00e+00    0.00e+00
Vth:       4.07e-01    4.84e-01    4.92e-01    4.61e-01    4.82e-01
Vdsat:     5.49e-02    4.20e-02    3.74e-02    1.78e-01    3.87e-02
Gm:        1.27e-05    1.40e-05    1.51e-05    2.88e-06    6.04e-06
Gds:       9.49e-08    4.77e-07    3.18e-07    2.12e-04    1.76e-07
Gmb        3.73e-06    3.78e-06    4.18e-06    8.35e-07    1.66e-06
Cbd:       0.00e+00    0.00e+00    0.00e+00    0.00e+00    0.00e+00
Cbs:       0.00e+00    0.00e+00    0.00e+00    0.00e+00    0.00e+00
Cgsov:     1.65e-15    8.23e-16    8.23e-15    8.23e-16    8.23e-16
Cgdov:     1.65e-15    8.23e-16    8.23e-15    8.23e-16    8.23e-16
Cgbov:     9.66e-19    1.46e-19    1.46e-19    3.26e-19    1.46e-19
dQgdVgb:   1.36e-14    2.10e-15    1.98e-14    4.40e-15    2.01e-15
dQgdVdb:  -1.62e-15   -8.22e-16   -8.23e-15   -1.97e-15   -8.23e-16
dQgdVsb:  -9.97e-15   -1.01e-15   -8.34e-15   -2.40e-15   -8.86e-16
dQddVgb:  -5.19e-15   -8.99e-16   -8.28e-15   -2.19e-15   -8.49e-16
dQddVdb:   1.63e-15    8.22e-16    8.23e-15    2.05e-15    8.23e-16
dQddVsb:   4.71e-15    9.92e-17    6.24e-17    5.63e-16    3.46e-17
dQbdVgb:  -3.19e-15   -2.98e-16   -3.22e-15   -1.71e-17   -3.11e-16
dQbdVdb:   1.30e-18    7.19e-20    5.84e-20   -1.31e-15    3.50e-20
dQbdVsb:  -1.09e-15   -1.58e-17   -1.17e-17    4.55e-16   -5.84e-18

Name:      m:x1:7      m:x1:12     m:x1:10     m:x1:2      m:x1:9
Model:    x1:cmosn    x1:cmosp    x1:cmosp    x1:cmosp    x1:cmosp
Id:        2.47e-07   -5.98e-07   -5.97e-07   -5.97e-07   -6.70e-07
Vgs:       3.84e-01   -4.26e-01   -4.26e-01   -4.36e-01   -4.26e-01
Vds:       7.14e-01   -1.37e+00   -1.36e+00   -4.39e-01   -1.80e+00
Vbs:       0.00e+00    0.00e+00    0.00e+00    0.00e+00    0.00e+00
Vth:       4.82e-01   -5.03e-01   -5.03e-01   -5.06e-01   -4.50e-01
Vdsat:     3.87e-02   -4.36e-02   -4.36e-02   -4.43e-02   -4.87e-02
Gm:        6.04e-06    1.35e-05    1.35e-05    1.35e-05    1.44e-05
Gds:       1.76e-07    1.21e-07    1.21e-07    2.07e-07    1.12e-07
Gmb        1.66e-06    4.15e-06    4.14e-06    4.16e-06    4.38e-06
Cbd:       0.00e+00    0.00e+00    0.00e+00    0.00e+00    0.00e+00
Cbs:       0.00e+00    0.00e+00    0.00e+00    0.00e+00    0.00e+00
Cgsov:     8.23e-16    3.18e-15    3.18e-15    3.18e-15    3.18e-15
Cgdov:     8.23e-16    3.18e-15    3.18e-15    3.18e-15    3.18e-15
Cgbov:     1.46e-19    1.21e-19    1.21e-19    1.21e-19    3.01e-19
dQgdVgb:   2.01e-15    7.94e-15    7.94e-15    8.00e-15    1.20e-14
dQgdVdb:  -8.23e-16   -3.17e-15   -3.17e-15   -3.17e-15   -3.17e-15
dQgdVsb:  -8.86e-16   -3.70e-15   -3.70e-15   -3.79e-15   -6.81e-15
dQddVgb:  -8.49e-16   -3.38e-15   -3.38e-15   -3.42e-15   -4.65e-15
dQddVdb:   8.23e-16    3.17e-15    3.17e-15    3.17e-15    3.17e-15
dQddVsb:   3.46e-17    2.75e-16    2.74e-16    3.21e-16    1.96e-15
dQbdVgb:  -3.11e-16   -1.17e-15   -1.17e-15   -1.17e-15   -2.71e-15
dQbdVdb:   3.50e-20    6.17e-20    6.16e-20   -1.76e-20    6.50e-19
dQbdVsb:  -5.84e-18   -2.61e-17   -2.61e-17   -3.03e-17   -2.76e-16

Name:      m:x1:6      m:x1:5      m:x1:4      m:x1:3
Model:    x1:cmosp    x1:cmosp    x1:cmosp    x1:cmosp
Id:       -2.47e-07   -2.47e-07   -4.94e-07   -4.74e-07
Vgs:      -4.44e-01   -4.44e-01   -4.26e-01   -4.26e-01
Vds:      -5.30e-01   -5.30e-01   -5.56e-01   -4.26e-01
Vbs:       0.00e+00    0.00e+00    0.00e+00    0.00e+00
Vth:      -4.95e-01   -4.95e-01   -5.05e-01   -5.06e-01
Vdsat:    -4.61e-02   -4.61e-02   -4.34e-02   -4.34e-02
Gm:        5.50e-06    5.50e-06    1.12e-05    1.08e-05
Gds:       7.61e-08    7.61e-08    1.47e-07    1.69e-07
Gmb        1.68e-06    1.68e-06    3.48e-06    3.34e-06
Cbd:       0.00e+00    0.00e+00    0.00e+00    0.00e+00
Cbs:       0.00e+00    0.00e+00    0.00e+00    0.00e+00
Cgsov:     8.57e-16    8.57e-16    3.18e-15    3.18e-15
Cgdov:     8.57e-16    8.57e-16    3.18e-15    3.18e-15
Cgbov:     1.21e-19    1.21e-19    1.21e-19    1.21e-19
dQgdVgb:   2.22e-15    2.22e-15    7.91e-15    7.91e-15
dQgdVdb:  -8.57e-16   -8.57e-16   -3.17e-15   -3.17e-15
dQgdVsb:  -1.11e-15   -1.11e-15   -3.67e-15   -3.66e-15
dQddVgb:  -9.55e-16   -9.55e-16   -3.37e-15   -3.37e-15
dQddVdb:   8.57e-16    8.57e-16    3.17e-15    3.17e-15
dQddVsb:   1.29e-16    1.29e-16    2.59e-16    2.57e-16
dQbdVgb:  -3.11e-16   -3.11e-16   -1.17e-15   -1.17e-15
dQbdVdb:   7.13e-21    7.13e-21    2.39e-20   -1.77e-20
dQbdVsb:  -1.09e-17   -1.09e-17   -2.48e-17   -2.48e-17



Date: Mon Oct 29 17:12:35 2018
Total elapsed time: 0.602 seconds.

tnom = 27
temp = 27
method = trap
totiter = 14
traniter = 0
tranpoints = 0
accept = 0
rejected = 0
matrix size = 22
fillins = 10
solver = Normal
Matrix Compiler1:     123 opcodes
Matrix Compiler2: 2.27 KB object code size
