Circuit: * C:\Users\subha\OneDrive\Documents\GitHub\PMIC_Final_Project_Fall_Buck_Converter\tb_error_amplifier_ac.asc

Ignoring BSIM parameter XL
Ignoring BSIM parameter XW
Ignoring BSIM parameter XL
Ignoring BSIM parameter XW
Warning: Pd = 0 is less than W.
Warning: Ps = 0 is less than W.
Warning: Pd = 0 is less than W.
Warning: Ps = 0 is less than W.
Warning: Pd = 0 is less than W.
Warning: Ps = 0 is less than W.
Warning: Pd = 0 is less than W.
Warning: Ps = 0 is less than W.
Warning: Pd = 0 is less than W.
Warning: Ps = 0 is less than W.
Direct Newton iteration for .op point succeeded.
Semiconductor Device Operating Points:
                        --- Bipolar Transistors ---
Name:     q:x1:2      q:x1:1
Model:    2n3904      2n3904
Ib:       1.76e-08    2.49e-08
Ic:       5.29e-06    7.50e-06
Vbe:      5.19e-01    5.28e-01
Vbc:     -2.15e-01   -5.19e-01
Vce:      7.35e-01    1.05e+00
BetaDC:   3.01e+02    3.02e+02
Gm:       2.05e-04    2.90e-04
Rpi:      1.47e+06    1.04e+06
Rx:       2.00e+01    2.00e+01
Ro:       1.89e+07    1.34e+07
Cbe:      1.14e-11    1.15e-11
Cbc:      3.68e-12    3.36e-12
Cjs:      0.00e+00    0.00e+00
BetaAC:   3.01e+02    3.01e+02
Cbx:      0.00e+00    0.00e+00
Ft:       2.16e+06    3.10e+06

                        --- BSIM3 MOSFETS ---
Name:      m:x1:8      m:x1:6      m:x1:5      m:x1:2      m:x1:12
Model:    x1:cmosn    x1:cmosn    x1:cmosn    x1:cmosn    x1:cmosn
Id:        2.33e-05    5.57e-06    5.57e-06    1.11e-05    6.11e-06
Vgs:       5.36e-01    5.75e-01    5.75e-01    5.36e-01    5.36e-01
Vds:       1.73e+00    9.61e-01    9.61e-01    2.25e-01    5.36e-01
Vbs:       0.00e+00   -2.25e-01   -2.25e-01    0.00e+00    0.00e+00
Vth:       4.86e-01    5.40e-01    5.40e-01    4.96e-01    4.83e-01
Vdsat:     6.77e-02    6.42e-02    6.42e-02    6.38e-02    6.82e-02
Gm:        3.98e-04    1.05e-04    1.05e-04    2.19e-04    1.12e-04
Gds:       8.66e-06    2.80e-06    2.80e-06    9.96e-06    3.43e-06
Gmb        1.00e-04    2.54e-05    2.54e-05    5.59e-05    2.90e-05
Cbd:       0.00e+00    0.00e+00    0.00e+00    0.00e+00    0.00e+00
Cbs:       0.00e+00    0.00e+00    0.00e+00    0.00e+00    0.00e+00
Cgsov:     2.47e-15    8.23e-16    8.23e-16    2.47e-15    8.23e-16
Cgdov:     2.47e-15    8.23e-16    8.23e-16    2.47e-15    8.23e-16
Cgbov:     1.46e-19    1.46e-19    1.46e-19    1.46e-19    1.46e-19
dQgdVgb:   7.67e-15    2.49e-15    2.49e-15    7.56e-15    2.57e-15
dQgdVdb:  -2.46e-15   -8.18e-16   -8.18e-16   -2.46e-15   -8.18e-16
dQgdVsb:  -4.81e-15   -1.54e-15   -1.54e-15   -4.68e-15   -1.62e-15
dQddVgb:  -3.45e-15   -1.12e-15   -1.12e-15   -3.40e-15   -1.16e-15
dQddVdb:   2.46e-15    8.21e-16    8.21e-16    2.47e-15    8.20e-16
dQddVsb:   1.27e-15    3.78e-16    3.78e-16    1.19e-15    4.30e-16
dQbdVgb:  -7.66e-16   -2.47e-16   -2.47e-16   -7.66e-16   -2.54e-16
dQbdVdb:   1.01e-18    2.37e-19    2.37e-19   -3.31e-18    2.64e-19
dQbdVsb:  -1.85e-16   -3.83e-17   -3.83e-17   -1.79e-16   -6.19e-17

Name:      m:x1:7      m:x1:4      m:x1:3      m:x1:11     m:x1:1
Model:    x1:cmosp    x1:cmosp    x1:cmosp    x1:cmosp    x1:cmosp
Id:       -2.33e-05   -5.57e-06   -5.57e-06   -6.11e-06   -5.29e-06
Vgs:      -6.14e-01   -6.14e-01   -6.14e-01   -5.37e-01   -5.37e-01
Vds:      -7.02e-02   -6.14e-01   -6.14e-01   -1.26e+00   -5.37e-01
Vbs:       0.00e+00    0.00e+00    0.00e+00    0.00e+00    0.00e+00
Vth:      -5.09e-01   -4.51e-01   -4.51e-01   -5.03e-01   -5.06e-01
Vdsat:    -1.06e-01   -1.40e-01   -1.40e-01   -6.92e-02   -6.83e-02
Gm:        2.80e-04    6.20e-05    6.20e-05    1.17e-04    1.03e-04
Gds:       1.90e-04    7.70e-07    7.70e-07    9.95e-07    1.44e-06
Gmb        8.47e-05    1.84e-05    1.84e-05    3.46e-05    3.06e-05
Cbd:       0.00e+00    0.00e+00    0.00e+00    0.00e+00    0.00e+00
Cbs:       0.00e+00    0.00e+00    0.00e+00    0.00e+00    0.00e+00
Cgsov:     6.35e-15    1.27e-15    1.27e-15    3.18e-15    3.18e-15
Cgdov:     6.35e-15    1.27e-15    1.27e-15    3.18e-15    3.18e-15
Cgbov:     1.21e-19    3.01e-19    3.01e-19    1.21e-19    1.21e-19
dQgdVgb:   2.15e-14    6.81e-15    6.81e-15    9.81e-15    9.77e-15
dQgdVdb:  -6.92e-15   -1.26e-15   -1.26e-15   -3.17e-15   -3.17e-15
dQgdVsb:  -1.43e-14   -5.38e-15   -5.38e-15   -6.20e-15   -6.15e-15
dQddVgb:  -9.99e-15   -2.94e-15   -2.94e-15   -4.37e-15   -4.35e-15
dQddVdb:   7.05e-15    1.27e-15    1.27e-15    3.17e-15    3.17e-15
dQddVsb:   4.06e-15    2.19e-15    2.19e-15    1.57e-15    1.55e-15
dQbdVgb:  -1.53e-15   -9.26e-16   -9.26e-16   -1.06e-15   -1.06e-15
dQbdVdb:  -8.21e-16   -5.58e-19   -5.58e-19    2.77e-19   -1.28e-19
dQbdVsb:  -1.73e-16   -2.66e-16   -2.66e-16   -1.23e-16   -1.22e-16



loop_gain_angle: v(vout)=(-0.00147776dB,-111.911°) at 4.08526e+008

Measurement "gain_margin" FAIL'ed


Date: Mon Nov 05 22:36:03 2018
Total elapsed time: 0.431 seconds.

tnom = 27
temp = 27
method = trap
totiter = 12
traniter = 0
tranpoints = 0
accept = 0
rejected = 0
matrix size = 21
fillins = 8
solver = Normal
Matrix Compiler1:     108 opcodes
Matrix Compiler2: 2.06 KB object code size
