Circuit: * C:\Users\subha\OneDrive\Documents\GitHub\PMIC_Final_Project_Fall_Buck_Converter\tb_error_amplifier.asc

Ignoring BSIM parameter XL
Ignoring BSIM parameter XW
Ignoring BSIM parameter XL
Ignoring BSIM parameter XW
Warning: Pd = 0 is less than W.
Warning: Ps = 0 is less than W.
Warning: Pd = 0 is less than W.
Warning: Ps = 0 is less than W.
Warning: Pd = 0 is less than W.
Warning: Ps = 0 is less than W.
Warning: Pd = 0 is less than W.
Warning: Ps = 0 is less than W.
Warning: Pd = 0 is less than W.
Warning: Ps = 0 is less than W.
Direct Newton iteration for .op point succeeded.
Semiconductor Device Operating Points:
                        --- Bipolar Transistors ---
Name:     q:x1:2      q:x1:1
Model:    2n3904      2n3904
Ib:       1.57e-09    2.88e-09
Ic:       4.74e-07    8.69e-07
Vbe:      4.57e-01    4.73e-01
Vbc:     -4.96e-01   -4.57e-01
Vce:      9.53e-01    9.30e-01
BetaDC:   3.01e+02    3.01e+02
Gm:       1.83e-05    3.36e-05
Rpi:      1.64e+07    8.97e+06
Rx:       2.00e+01    2.00e+01
Ro:       2.12e+08    1.16e+08
Cbe:      1.08e-11    1.09e-11
Cbc:      3.38e-12    3.42e-12
Cjs:      0.00e+00    0.00e+00
BetaAC:   3.01e+02    3.01e+02
Cbx:      0.00e+00    0.00e+00
Ft:       2.06e+05    3.72e+05

                        --- BSIM3 MOSFETS ---
Name:      m:x1:1      m:x1:8      m:x1:7      m:x1:9      m:x1:6
Model:    x1:cmosn    x1:cmosn    x1:cmosn    x1:cmosp    x1:cmosp
Id:        1.15e-06    2.46e-07    2.46e-07   -1.15e-06   -2.46e-07
Vgs:       4.42e-01    4.42e-01    4.42e-01   -3.75e-01   -4.41e-01
Vds:       3.29e-01    4.42e-01    4.42e-01   -1.47e+00   -7.98e-01
Vbs:       0.00e+00    0.00e+00    0.00e+00    0.00e+00    0.00e+00
Vth:       4.93e-01    4.45e-01    4.45e-01   -4.26e-01   -4.94e-01
Vdsat:     4.26e-02    4.96e-02    4.96e-02   -4.20e-02   -4.57e-02
Gm:        2.69e-05    5.55e-06    5.55e-06    2.58e-05    5.46e-06
Gds:       9.71e-07    7.86e-08    7.86e-08    1.89e-07    6.06e-08
Gmb        7.14e-06    1.62e-06    1.62e-06    8.19e-06    1.67e-06
Cbd:       0.00e+00    0.00e+00    0.00e+00    0.00e+00    0.00e+00
Cbs:       0.00e+00    0.00e+00    0.00e+00    0.00e+00    0.00e+00
Cgsov:     1.65e-15    2.96e-16    2.96e-16    2.54e-14    8.57e-16
Cgdov:     1.65e-15    2.96e-16    2.96e-16    2.54e-14    8.57e-16
Cgbov:     1.46e-19    3.26e-19    3.26e-19    6.61e-19    1.21e-19
dQgdVgb:   4.22e-15    1.13e-15    1.13e-15    1.30e-13    2.21e-15
dQgdVdb:  -1.64e-15   -2.94e-16   -2.94e-16   -2.53e-14   -8.57e-16
dQgdVsb:  -2.04e-15   -6.80e-16   -6.80e-16   -6.22e-14   -1.09e-15
dQddVgb:  -1.81e-15   -4.56e-16   -4.56e-16   -4.06e-14   -9.50e-16
dQddVdb:   1.64e-15    2.95e-16    2.95e-16    2.54e-14    8.57e-16
dQddVsb:   2.16e-16    2.12e-16    2.12e-16    2.03e-14    1.23e-16
dQbdVgb:  -5.92e-16   -2.15e-16   -2.15e-16   -4.89e-14   -3.12e-16
dQbdVdb:   5.93e-20    1.84e-19    1.84e-19    8.50e-18    2.20e-20
dQbdVsb:  -3.45e-17   -4.04e-17   -4.04e-17   -3.81e-15   -1.03e-17

Name:      m:x1:5      m:x1:4      m:x1:3
Model:    x1:cmosp    x1:cmosp    x1:cmosp
Id:       -2.46e-07   -4.91e-07   -4.74e-07
Vgs:      -4.41e-01   -3.75e-01   -3.75e-01
Vds:      -7.98e-01   -5.59e-01   -3.75e-01
Vbs:       0.00e+00    0.00e+00    0.00e+00
Vth:      -4.94e-01   -4.29e-01   -4.30e-01
Vdsat:    -4.57e-02   -4.16e-02   -4.16e-02
Gm:        5.46e-06    1.12e-05    1.08e-05
Gds:       6.06e-08    9.06e-08    9.48e-08
Gmb        1.67e-06    3.55e-06    3.43e-06
Cbd:       0.00e+00    0.00e+00    0.00e+00
Cbs:       0.00e+00    0.00e+00    0.00e+00
Cgsov:     8.57e-16    1.27e-14    1.27e-14
Cgdov:     8.57e-16    1.27e-14    1.27e-14
Cgbov:     1.21e-19    6.61e-19    6.61e-19
dQgdVgb:   2.21e-15    6.43e-14    6.42e-14
dQgdVdb:  -8.57e-16   -1.27e-14   -1.27e-14
dQgdVsb:  -1.09e-15   -3.02e-14   -3.00e-14
dQddVgb:  -9.50e-16   -1.99e-14   -1.98e-14
dQddVdb:   8.57e-16    1.27e-14    1.27e-14
dQddVsb:   1.23e-16    9.63e-15    9.53e-15
dQbdVgb:  -3.12e-16   -2.45e-14   -2.45e-14
dQbdVdb:   2.20e-20    2.93e-18    4.76e-19
dQbdVsb:  -1.03e-17   -1.81e-15   -1.80e-15



Date: Sun Oct 28 14:32:20 2018
Total elapsed time: 0.479 seconds.

tnom = 27
temp = 27
method = trap
totiter = 14
traniter = 0
tranpoints = 0
accept = 0
rejected = 0
matrix size = 19
fillins = 6
solver = Normal
Matrix Compiler1:      92 opcodes
Matrix Compiler2: 1.78 KB object code size
