Circuit: * C:\Users\subha\OneDrive\Documents\GitHub\PMIC_Final_Project_Fall_Buck_Converter\tb_error_amplifier.asc

Ignoring BSIM parameter XL
Ignoring BSIM parameter XW
Ignoring BSIM parameter XL
Ignoring BSIM parameter XW
Warning: Pd = 0 is less than W.
Warning: Ps = 0 is less than W.
Warning: Pd = 0 is less than W.
Warning: Ps = 0 is less than W.
Warning: Pd = 0 is less than W.
Warning: Ps = 0 is less than W.
Direct Newton iteration for .op point succeeded.
Semiconductor Device Operating Points:
                        --- Bipolar Transistors ---
Name:     q:x1:2      q:x1:1
Model:    2n3904      2n3904
Ib:       1.57e-09    2.88e-09
Ic:       4.74e-07    8.69e-07
Vbe:      4.57e-01    4.73e-01
Vbc:     -4.44e-01   -4.57e-01
Vce:      9.01e-01    9.30e-01
BetaDC:   3.01e+02    3.01e+02
Gm:       1.83e-05    3.36e-05
Rpi:      1.64e+07    8.97e+06
Rx:       2.00e+01    2.00e+01
Ro:       2.12e+08    1.16e+08
Cbe:      1.08e-11    1.09e-11
Cbc:      3.43e-12    3.42e-12
Cjs:      0.00e+00    0.00e+00
BetaAC:   3.01e+02    3.01e+02
Cbx:      0.00e+00    0.00e+00
Ft:       2.05e+05    3.72e+05

                        --- BSIM3 MOSFETS ---
Name:      m:x1:6      m:x1:5      m:x1:1      m:x1:8      m:x1:7
Model:    x1:cmosn    x1:cmosn    x1:cmosn    x1:cmosn    x1:cmosn
Id:        6.30e-10    6.30e-10    3.00e-09    6.30e-10    6.30e-10
Vgs:       2.84e-01    2.84e-01    1.89e-01    1.89e-01    1.89e-01
Vds:       1.28e+00    1.28e+00    1.80e+00    1.89e-01    1.89e-01
Vbs:      -5.16e-01   -5.16e-01    0.00e+00    0.00e+00    0.00e+00
Vth:       6.09e-01    6.09e-01    4.73e-01    4.59e-01    4.59e-01
Vdsat:     3.91e-02    3.91e-02    3.67e-02    3.51e-02    3.51e-02
Gm:        1.81e-08    1.81e-08    8.13e-08    1.72e-08    1.72e-08
Gds:       4.04e-10    4.04e-10    1.66e-09    3.32e-10    3.32e-10
Gmb        4.49e-09    4.49e-09    2.46e-08    5.58e-09    5.58e-09
Cbd:       0.00e+00    0.00e+00    0.00e+00    0.00e+00    0.00e+00
Cbs:       0.00e+00    0.00e+00    0.00e+00    0.00e+00    0.00e+00
Cgsov:     8.23e-16    8.23e-16    8.23e-16    8.23e-16    8.23e-16
Cgdov:     8.23e-16    8.23e-16    8.23e-16    8.23e-16    8.23e-16
Cgbov:     1.46e-19    1.46e-19    1.46e-19    3.26e-19    3.26e-19
dQgdVgb:   1.92e-15    1.92e-15    1.99e-15    2.40e-15    2.40e-15
dQgdVdb:  -8.23e-16   -8.23e-16   -8.23e-16   -8.23e-16   -8.23e-16
dQgdVsb:  -8.23e-16   -8.23e-16   -8.23e-16   -8.24e-16   -8.24e-16
dQddVgb:  -8.23e-16   -8.23e-16   -8.23e-16   -8.24e-16   -8.24e-16
dQddVdb:   8.23e-16    8.23e-16    8.23e-16    8.23e-16    8.23e-16
dQddVsb:   4.15e-20    4.15e-20    2.28e-19    6.98e-19    6.98e-19
dQbdVgb:  -2.74e-16   -2.74e-16   -3.41e-16   -7.53e-16   -7.53e-16
dQbdVdb:   2.92e-23    2.92e-23    3.17e-22   -5.79e-22   -5.79e-22
dQbdVsb:   4.89e-21    4.89e-21   -4.00e-20   -1.59e-19   -1.59e-19

Name:      m:x1:12     m:x1:11     m:x1:10     m:x1:2      m:x1:9
Model:    x1:cmosp    x1:cmosp    x1:cmosp    x1:cmosp    x1:cmosp
Id:       -6.30e-10   -6.30e-10   -1.62e-11   -1.80e-11   -3.00e-09
Vgs:      -5.16e-01   -5.16e-01   -4.26e-01   -2.27e-04   -4.26e-01
Vds:      -3.27e-01   -3.27e-01   -1.23e-06   -1.80e+00   -2.28e-04
Vbs:       1.28e+00    1.28e+00    0.00e+00    1.23e-06    0.00e+00
Vth:      -8.32e-01   -8.32e-01   -5.07e-01   -5.01e-01   -5.07e-01
Vdsat:    -4.30e-02   -4.30e-02   -4.33e-02   -3.92e-02   -4.33e-02
Gm:        1.80e-08    1.80e-08    3.44e-10    4.17e-10    6.37e-08
Gds:       3.22e-10    3.22e-10    1.32e-05    3.37e-12    1.31e-05
Gmb        4.22e-09    4.22e-09    1.09e-10    1.57e-10    2.01e-08
Cbd:       0.00e+00    0.00e+00    0.00e+00    0.00e+00    0.00e+00
Cbs:       0.00e+00    0.00e+00    0.00e+00    0.00e+00    0.00e+00
Cgsov:     3.18e-15    3.18e-15    3.18e-15    3.18e-15    3.18e-15
Cgdov:     3.18e-15    3.18e-15    3.18e-15    3.18e-15    3.18e-15
Cgbov:     1.21e-19    1.21e-19    1.21e-19    1.21e-19    1.21e-19
dQgdVgb:   7.18e-15    7.18e-15    7.98e-15    7.81e-15    7.98e-15
dQgdVdb:  -3.17e-15   -3.17e-15   -3.39e-15   -3.17e-15   -3.39e-15
dQgdVsb:  -3.18e-15   -3.18e-15   -3.53e-15   -3.18e-15   -3.54e-15
dQddVgb:  -3.18e-15   -3.18e-15   -3.46e-15   -3.18e-15   -3.45e-15
dQddVdb:   3.17e-15    3.17e-15    3.44e-15    3.17e-15    3.43e-15
dQddVsb:   2.23e-19    2.23e-19    1.10e-16    5.94e-21    1.14e-16
dQbdVgb:  -8.30e-16   -8.30e-16   -1.07e-15   -1.46e-15   -1.07e-15
dQbdVdb:  -1.70e-22   -1.70e-22   -3.07e-16    3.10e-24   -3.00e-16
dQbdVsb:   4.33e-20    4.33e-20    1.38e-16    4.71e-20    1.33e-16

Name:      m:x1:4      m:x1:3
Model:    x1:cmosp    x1:cmosp
Id:       -1.26e-09   -4.74e-07
Vgs:      -4.26e-01   -4.26e-01
Vds:      -9.56e-05   -4.26e-01
Vbs:       0.00e+00    0.00e+00
Vth:      -5.07e-01   -5.06e-01
Vdsat:    -4.33e-02   -4.34e-02
Gm:        2.67e-08    1.08e-05
Gds:       1.32e-05    1.69e-07
Gmb        8.43e-09    3.34e-06
Cbd:       0.00e+00    0.00e+00
Cbs:       0.00e+00    0.00e+00
Cgsov:     3.18e-15    3.18e-15
Cgdov:     3.18e-15    3.18e-15
Cgbov:     1.21e-19    1.21e-19
dQgdVgb:   7.98e-15    7.91e-15
dQgdVdb:  -3.39e-15   -3.17e-15
dQgdVsb:  -3.53e-15   -3.66e-15
dQddVgb:  -3.45e-15   -3.37e-15
dQddVdb:   3.44e-15    3.17e-15
dQddVsb:   1.12e-16    2.57e-16
dQbdVgb:  -1.07e-15   -1.17e-15
dQbdVdb:  -3.04e-16   -1.77e-20
dQbdVsb:   1.36e-16   -2.48e-17



Date: Mon Oct 29 19:23:06 2018
Total elapsed time: 0.416 seconds.

tnom = 27
temp = 27
method = trap
totiter = 14
traniter = 0
tranpoints = 0
accept = 0
rejected = 0
matrix size = 23
fillins = 10
solver = Normal
Matrix Compiler1:     119 opcodes
Matrix Compiler2: 2.34 KB object code size
