Circuit: * C:\Users\subha\OneDrive\Documents\GitHub\PMIC_Final_Project_Fall_Buck_Converter\tb_error_amplifier.asc

Ignoring BSIM parameter XL
Ignoring BSIM parameter XW
Ignoring BSIM parameter XL
Ignoring BSIM parameter XW
Warning: Pd = 0 is less than W.
Warning: Ps = 0 is less than W.
Warning: Pd = 0 is less than W.
Warning: Ps = 0 is less than W.
Warning: Pd = 0 is less than W.
Warning: Ps = 0 is less than W.
Warning: Pd = 0 is less than W.
Warning: Ps = 0 is less than W.
Direct Newton iteration for .op point succeeded.
Semiconductor Device Operating Points:
                        --- Bipolar Transistors ---
Name:     q:x1:2      q:x1:1
Model:    2n3904      2n3904
Ib:       1.57e-09    2.88e-09
Ic:       4.74e-07    8.69e-07
Vbe:      4.57e-01    4.73e-01
Vbc:     -4.44e-01   -4.57e-01
Vce:      9.01e-01    9.30e-01
BetaDC:   3.01e+02    3.01e+02
Gm:       1.83e-05    3.36e-05
Rpi:      1.64e+07    8.97e+06
Rx:       2.00e+01    2.00e+01
Ro:       2.12e+08    1.16e+08
Cbe:      1.08e-11    1.09e-11
Cbc:      3.43e-12    3.42e-12
Cjs:      0.00e+00    0.00e+00
BetaAC:   3.01e+02    3.01e+02
Cbx:      0.00e+00    0.00e+00
Ft:       2.05e+05    3.72e+05

                        --- BSIM3 MOSFETS ---
Name:      m:x1:1      m:x1:8      m:x1:7      m:x1:12     m:x1:11
Model:    x1:cmosn    x1:cmosn    x1:cmosn    x1:cmosp    x1:cmosp
Id:        5.52e-07    2.37e-07    2.37e-07   -2.37e-07   -2.37e-07
Vgs:       4.15e-01    4.15e-01    4.15e-01   -6.31e-01   -6.31e-01
Vds:       8.11e-01    4.15e-01    4.15e-01   -6.89e-01   -6.89e-01
Vbs:       0.00e+00    0.00e+00    0.00e+00    6.96e-01    6.96e-01
Vth:       4.81e-01    4.58e-01    4.58e-01   -6.85e-01   -6.85e-01
Vdsat:     4.08e-02    4.19e-02    4.19e-02   -4.91e-02   -4.91e-02
Gm:        1.30e-05    5.65e-06    5.65e-06    5.57e-06    5.57e-06
Gds:       3.67e-07    7.48e-08    7.48e-08    6.98e-08    6.98e-08
Gmb        3.51e-06    1.64e-06    1.64e-06    1.39e-06    1.39e-06
Cbd:       0.00e+00    0.00e+00    0.00e+00    0.00e+00    0.00e+00
Cbs:       0.00e+00    0.00e+00    0.00e+00    0.00e+00    0.00e+00
Cgsov:     8.23e-16    8.23e-16    8.23e-16    8.57e-16    8.57e-16
Cgdov:     8.23e-16    8.23e-16    8.23e-16    8.57e-16    8.57e-16
Cgbov:     1.46e-19    3.26e-19    3.26e-19    1.21e-19    1.21e-19
dQgdVgb:   2.06e-15    2.72e-15    2.72e-15    2.13e-15    2.13e-15
dQgdVdb:  -8.22e-16   -8.21e-16   -8.21e-16   -8.56e-16   -8.56e-16
dQgdVsb:  -9.61e-16   -1.33e-15   -1.33e-15   -1.07e-15   -1.07e-15
dQddVgb:  -8.81e-16   -1.04e-15   -1.04e-15   -9.41e-16   -9.41e-16
dQddVdb:   8.23e-16    8.22e-16    8.22e-16    8.57e-16    8.57e-16
dQddVsb:   7.52e-17    2.83e-16    2.83e-16    1.06e-16    1.06e-16
dQbdVgb:  -3.02e-16   -6.47e-16   -6.47e-16   -2.50e-16   -2.50e-16
dQbdVdb:   7.41e-20    2.00e-19    2.00e-19   -1.98e-20   -1.98e-20
dQbdVsb:  -1.21e-17   -5.62e-17   -5.62e-17    3.35e-18    3.35e-18

Name:      m:x1:10     m:x1:2      m:x1:9      m:x1:6      m:x1:5
Model:    x1:cmosp    x1:cmosp    x1:cmosp    x1:cmosp    x1:cmosp
Id:       -4.77e-07   -4.77e-07   -5.52e-07   -2.37e-07   -2.37e-07
Vgs:      -4.26e-01   -5.43e-01   -4.26e-01   -5.69e-01   -5.69e-01
Vds:      -4.45e-01   -1.35e+00   -9.89e-01   -2.66e-01   -2.66e-01
Vbs:       0.00e+00    4.45e-01    0.00e+00    4.31e-01    4.31e-01
Vth:      -5.06e-01   -6.28e-01   -5.04e-01   -6.19e-01   -6.19e-01
Vdsat:    -4.34e-02   -4.50e-02   -4.35e-02   -4.88e-02   -4.88e-02
Gm:        1.09e-05    1.13e-05    1.25e-05    5.48e-06    5.48e-06
Gds:       1.65e-07    1.06e-07    1.24e-07    1.31e-07    1.31e-07
Gmb        3.36e-06    3.01e-06    3.85e-06    1.46e-06    1.46e-06
Cbd:       0.00e+00    0.00e+00    0.00e+00    0.00e+00    0.00e+00
Cbs:       0.00e+00    0.00e+00    0.00e+00    0.00e+00    0.00e+00
Cgsov:     3.18e-15    3.18e-15    3.18e-15    8.57e-16    8.57e-16
Cgdov:     3.18e-15    3.18e-15    3.18e-15    8.57e-16    8.57e-16
Cgbov:     1.21e-19    1.21e-19    1.21e-19    1.21e-19    1.21e-19
dQgdVgb:   7.91e-15    7.65e-15    7.93e-15    2.17e-15    2.17e-15
dQgdVdb:  -3.17e-15   -3.17e-15   -3.17e-15   -8.57e-16   -8.57e-16
dQgdVsb:  -3.66e-15   -3.56e-15   -3.68e-15   -1.10e-15   -1.10e-15
dQddVgb:  -3.37e-15   -3.33e-15   -3.38e-15   -9.53e-16   -9.53e-16
dQddVdb:   3.17e-15    3.17e-15    3.17e-15    8.57e-16    8.57e-16
dQddVsb:   2.57e-16    1.95e-16    2.67e-16    1.22e-16    1.22e-16
dQbdVgb:  -1.17e-15   -9.94e-16   -1.17e-15   -2.67e-16   -2.67e-16
dQbdVdb:  -8.49e-21    4.50e-21    5.55e-20   -1.40e-19   -1.40e-19
dQbdVsb:  -2.48e-17   -1.95e-18   -2.54e-17   -7.02e-19   -7.02e-19

Name:      m:x1:4      m:x1:3
Model:    x1:cmosp    x1:cmosp
Id:       -4.75e-07   -4.74e-07
Vgs:      -4.26e-01   -4.26e-01
Vds:      -4.31e-01   -4.26e-01
Vbs:       0.00e+00    0.00e+00
Vth:      -5.06e-01   -5.06e-01
Vdsat:    -4.34e-02   -4.34e-02
Gm:        1.08e-05    1.08e-05
Gds:       1.68e-07    1.69e-07
Gmb        3.35e-06    3.34e-06
Cbd:       0.00e+00    0.00e+00
Cbs:       0.00e+00    0.00e+00
Cgsov:     3.18e-15    3.18e-15
Cgdov:     3.18e-15    3.18e-15
Cgbov:     1.21e-19    1.21e-19
dQgdVgb:   7.91e-15    7.91e-15
dQgdVdb:  -3.17e-15   -3.17e-15
dQgdVsb:  -3.66e-15   -3.66e-15
dQddVgb:  -3.37e-15   -3.37e-15
dQddVdb:   3.17e-15    3.17e-15
dQddVsb:   2.57e-16    2.57e-16
dQbdVgb:  -1.17e-15   -1.17e-15
dQbdVdb:  -1.54e-20   -1.77e-20
dQbdVsb:  -2.48e-17   -2.48e-17



Date: Mon Oct 29 19:08:45 2018
Total elapsed time: 0.338 seconds.

tnom = 27
temp = 27
method = trap
totiter = 14
traniter = 0
tranpoints = 0
accept = 0
rejected = 0
matrix size = 22
fillins = 16
solver = Normal
Matrix Compiler1:     157 opcodes
Matrix Compiler2: 2.61 KB object code size
