Circuit: * C:\Users\subha\OneDrive\Documents\GitHub\PMIC_Final_Project_Fall_Buck_Converter\tb_error_amplifier.asc

Ignoring BSIM parameter XL
Ignoring BSIM parameter XW
Ignoring BSIM parameter XL
Ignoring BSIM parameter XW
Warning: Pd = 0 is less than W.
Warning: Ps = 0 is less than W.
Warning: Pd = 0 is less than W.
Warning: Ps = 0 is less than W.
Warning: Pd = 0 is less than W.
Warning: Ps = 0 is less than W.
Warning: Pd = 0 is less than W.
Warning: Ps = 0 is less than W.
Warning: Pd = 0 is less than W.
Warning: Ps = 0 is less than W.
Warning: Pd = 0 is less than W.
Warning: Ps = 0 is less than W.
Direct Newton iteration for .op point succeeded.
Semiconductor Device Operating Points:
                        --- Bipolar Transistors ---
Name:     q:x1:2      q:x1:1
Model:    2n3904      2n3904
Ib:       1.57e-09    2.88e-09
Ic:       4.74e-07    8.69e-07
Vbe:      4.57e-01    4.73e-01
Vbc:     -4.18e-01   -4.57e-01
Vce:      8.75e-01    9.30e-01
BetaDC:   3.01e+02    3.01e+02
Gm:       1.83e-05    3.36e-05
Rpi:      1.64e+07    8.97e+06
Rx:       2.00e+01    2.00e+01
Ro:       2.12e+08    1.16e+08
Cbe:      1.08e-11    1.09e-11
Cbc:      3.46e-12    3.42e-12
Cjs:      0.00e+00    0.00e+00
BetaAC:   3.01e+02    3.01e+02
Cbx:      0.00e+00    0.00e+00
Ft:       2.05e+05    3.72e+05

                        --- BSIM3 MOSFETS ---
Name:      m:x1:1      m:x1:8      m:x1:7      m:x1:9      m:x1:6
Model:    x1:cmosn    x1:cmosn    x1:cmosn    x1:cmosp    x1:cmosp
Id:        4.52e-06    1.31e-06    1.31e-06   -4.52e-06   -1.31e-06
Vgs:       4.67e-01    4.67e-01    4.67e-01   -4.52e-01   -5.19e-01
Vds:       1.73e+00    4.67e-01    4.67e-01   -7.45e-02   -8.52e-01
Vbs:       0.00e+00    0.00e+00    0.00e+00    0.00e+00    0.00e+00
Vth:       4.82e-01    4.41e-01    4.41e-01   -4.31e-01   -4.94e-01
Vdsat:     4.81e-02    5.84e-02    5.84e-02   -5.97e-02   -6.50e-02
Gm:        9.52e-05    2.62e-05    2.62e-05    8.92e-05    2.58e-05
Gds:       2.06e-06    9.82e-07    9.82e-07    1.24e-05    2.71e-07
Gmb        2.47e-05    7.47e-06    7.47e-06    2.78e-05    7.68e-06
Cbd:       0.00e+00    0.00e+00    0.00e+00    0.00e+00    0.00e+00
Cbs:       0.00e+00    0.00e+00    0.00e+00    0.00e+00    0.00e+00
Cgsov:     1.65e-15    2.22e-16    2.22e-16    2.54e-14    8.57e-16
Cgdov:     1.65e-15    2.22e-16    2.22e-16    2.54e-14    8.57e-16
Cgbov:     1.46e-19    1.46e-19    1.46e-19    6.61e-19    1.21e-19
dQgdVgb:   4.51e-15    6.65e-16    6.65e-16    1.91e-13    2.61e-15
dQgdVdb:  -1.64e-15   -2.20e-16   -2.20e-16   -2.83e-14   -8.55e-16
dQgdVsb:  -2.42e-15   -4.07e-16   -4.07e-16   -1.42e-13   -1.62e-15
dQddVgb:  -1.97e-15   -2.97e-16   -2.97e-16   -7.61e-14   -1.16e-15
dQddVdb:   1.64e-15    2.21e-16    2.21e-16    2.84e-14    8.56e-16
dQddVsb:   4.21e-16    9.97e-17    9.97e-17    6.43e-14    3.97e-16
dQbdVgb:  -5.65e-16   -7.12e-17   -7.12e-17   -3.92e-14   -2.91e-16
dQbdVdb:   3.66e-19    1.14e-19    1.14e-19   -2.97e-15    5.47e-20
dQbdVsb:  -6.46e-17   -1.43e-17   -1.43e-17   -1.22e-14   -2.89e-17

Name:      m:x1:5      m:x1:4      m:x1:3
Model:    x1:cmosp    x1:cmosp    x1:cmosp
Id:       -1.31e-06   -2.62e-06   -4.74e-07
Vgs:      -5.19e-01   -4.52e-01   -4.52e-01
Vds:      -8.52e-01   -4.81e-01   -4.52e-01
Vbs:       0.00e+00    0.00e+00    0.00e+00
Vth:      -4.94e-01   -4.29e-01   -4.52e-01
Vdsat:    -6.50e-02   -6.01e-02   -5.43e-02
Gm:        2.58e-05    5.31e-05    1.00e-05
Gds:       2.71e-07    4.25e-07    1.07e-07
Gmb        7.68e-06    1.64e-05    3.02e-06
Cbd:       0.00e+00    0.00e+00    0.00e+00
Cbs:       0.00e+00    0.00e+00    0.00e+00
Cgsov:     8.57e-16    1.27e-14    1.59e-15
Cgdov:     8.57e-16    1.27e-14    1.59e-15
Cgbov:     1.21e-19    6.61e-19    3.01e-19
dQgdVgb:   2.61e-15    9.47e-14    6.60e-15
dQgdVdb:  -8.55e-16   -1.26e-14   -1.58e-15
dQgdVsb:  -1.62e-15   -7.11e-14   -4.19e-15
dQddVgb:  -1.16e-15   -3.68e-14   -2.65e-15
dQddVdb:   8.56e-16    1.26e-14    1.58e-15
dQddVsb:   3.97e-16    3.20e-14    1.40e-15
dQbdVgb:  -2.91e-16   -2.11e-14   -1.31e-15
dQbdVdb:   5.47e-20    3.41e-18    9.55e-21
dQbdVsb:  -2.89e-17   -5.63e-15   -1.89e-16



Date: Sun Oct 28 12:59:52 2018
Total elapsed time: 0.342 seconds.

tnom = 27
temp = 27
method = trap
totiter = 14
traniter = 0
tranpoints = 0
accept = 0
rejected = 0
matrix size = 19
fillins = 6
solver = Normal
Matrix Compiler1:      92 opcodes
Matrix Compiler2: 1.78 KB object code size
