Circuit: * C:\Users\subha\OneDrive\Documents\GitHub\PMIC_Final_Project_Fall_Buck_Converter\tb_error_amplifier_ac.asc

Ignoring BSIM parameter XL
Ignoring BSIM parameter XW
Ignoring BSIM parameter XL
Ignoring BSIM parameter XW
Warning: Pd = 0 is less than W.
Warning: Ps = 0 is less than W.
Warning: Pd = 0 is less than W.
Warning: Ps = 0 is less than W.
Warning: Pd = 0 is less than W.
Warning: Ps = 0 is less than W.
Warning: Pd = 0 is less than W.
Warning: Ps = 0 is less than W.
Direct Newton iteration for .op point succeeded.
Semiconductor Device Operating Points:
                        --- BSIM3 MOSFETS ---
Name:      m:x1:7      m:x1:4      m:x1:3      m:x1:8      m:x1:6
Model:    x1:cmosp    x1:cmosp    x1:cmosp    x1:cmosn    x1:cmosn
Id:       -1.19e-05   -2.96e-06   -2.96e-06    1.19e-05    2.96e-06
Vgs:      -5.49e-01   -5.49e-01   -5.49e-01    5.04e-01    5.49e-01
Vds:      -2.93e-01   -5.49e-01   -5.49e-01    1.51e+00    9.99e-01
Vbs:       0.00e+00    0.00e+00    0.00e+00    0.00e+00   -2.51e-01
Vth:      -5.08e-01   -5.00e-01   -5.00e-01    4.87e-01    5.47e-01
Vdsat:    -7.25e-02   -7.54e-02   -7.54e-02    5.63e-02    5.41e-02
Gm:        2.24e-04    5.44e-05    5.44e-05    2.32e-04    6.21e-05
Gds:       5.79e-06    7.85e-07    7.85e-07    5.18e-06    1.64e-06
Gmb        6.69e-05    1.61e-05    1.61e-05    5.91e-05    1.50e-05
Cbd:       0.00e+00    0.00e+00    0.00e+00    0.00e+00    0.00e+00
Cbs:       0.00e+00    0.00e+00    0.00e+00    0.00e+00    0.00e+00
Cgsov:     6.35e-15    1.27e-15    1.27e-15    2.47e-15    8.23e-16
Cgdov:     6.35e-15    1.27e-15    1.27e-15    2.47e-15    8.23e-16
Cgbov:     1.21e-19    1.21e-19    1.21e-19    1.46e-19    1.46e-19
dQgdVgb:   1.99e-14    4.03e-15    4.03e-15    7.25e-15    2.32e-15
dQgdVdb:  -6.34e-15   -1.27e-15   -1.27e-15   -2.46e-15   -8.20e-16
dQgdVsb:  -1.27e-14   -2.62e-15   -2.62e-15   -4.27e-15   -1.33e-15
dQddVgb:  -8.88e-15   -1.80e-15   -1.80e-15   -3.22e-15   -1.03e-15
dQddVdb:   6.35e-15    1.27e-15    1.27e-15    2.46e-15    8.21e-16
dQddVsb:   3.33e-15    7.00e-16    7.00e-16    9.74e-16    2.67e-16
dQbdVgb:  -2.10e-15   -4.22e-16   -4.22e-16   -8.02e-16   -2.55e-16
dQbdVdb:  -5.27e-18   -7.84e-20   -7.84e-20    7.86e-19    1.67e-19
dQbdVsb:  -2.72e-16   -5.14e-17   -5.14e-17   -1.45e-16   -2.66e-17

Name:      m:x1:5      m:x1:2      m:x1:12
Model:    x1:cmosn    x1:cmosn    x1:cmosn
Id:        2.96e-06    5.93e-06    3.24e-06
Vgs:       5.49e-01    5.04e-01    5.04e-01
Vds:       9.99e-01    2.51e-01    5.04e-01
Vbs:      -2.51e-01    0.00e+00    0.00e+00
Vth:       5.47e-01    4.96e-01    4.83e-01
Vdsat:     5.41e-02    5.38e-02    5.71e-02
Gm:        6.21e-05    1.27e-04    6.62e-05
Gds:       1.64e-06    5.13e-06    2.08e-06
Gmb        1.50e-05    3.28e-05    1.73e-05
Cbd:       0.00e+00    0.00e+00    0.00e+00
Cbs:       0.00e+00    0.00e+00    0.00e+00
Cgsov:     8.23e-16    2.47e-15    8.23e-16
Cgdov:     8.23e-16    2.47e-15    8.23e-16
Cgbov:     1.46e-19    1.46e-19    1.46e-19
dQgdVgb:   2.32e-15    7.12e-15    2.44e-15
dQgdVdb:  -8.20e-16   -2.46e-15   -8.19e-16
dQgdVsb:  -1.33e-15   -4.11e-15   -1.45e-15
dQddVgb:  -1.03e-15   -3.16e-15   -1.08e-15
dQddVdb:   8.21e-16    2.47e-15    8.21e-16
dQddVsb:   2.67e-16    8.86e-16    3.40e-16
dQbdVgb:  -2.55e-16   -8.08e-16   -2.66e-16
dQbdVdb:   1.67e-19   -9.46e-19    2.25e-19
dQbdVsb:  -2.66e-17   -1.35e-16   -4.99e-17



loop_gain_angle: v(vout)=(-0.00335465dB,-130.724°) at 5.50523e+008
gain_margin: v(vout)=(-10.7163dB,177.274°) at 1.68484e+009


Date: Thu Nov 08 03:51:31 2018
Total elapsed time: 0.439 seconds.

tnom = 27
temp = 27
method = trap
totiter = 9
traniter = 0
tranpoints = 0
accept = 0
rejected = 0
matrix size = 12
fillins = 2
solver = Normal
Matrix Compiler1:      45 opcodes
Matrix Compiler2: 1.08 KB object code size
