Circuit: * C:\Users\subha\OneDrive\Documents\GitHub\PMIC_Final_Project_Fall_Buck_Converter\tb_pmos_error_amplifier.asc

Ignoring BSIM parameter XL
Ignoring BSIM parameter XW
Ignoring BSIM parameter XL
Ignoring BSIM parameter XW
Warning: Pd = 0 is less than W.
Warning: Ps = 0 is less than W.
Warning: Pd = 0 is less than W.
Warning: Ps = 0 is less than W.
Warning: Pd = 0 is less than W.
Warning: Ps = 0 is less than W.
Warning: Pd = 0 is less than W.
Warning: Ps = 0 is less than W.
Direct Newton iteration for .op point succeeded.
Semiconductor Device Operating Points:
                        --- BSIM3 MOSFETS ---
Name:      m:x1:14     m:x1:13     m:x1:16     m:x1:5      m:x1:4
Model:    x1:cmosn    x1:cmosn    x1:cmosn    x1:cmosp    x1:cmosp
Id:        1.60e-06    1.60e-06    3.57e-06   -3.57e-06   -1.60e-06
Vgs:       4.99e-01    4.99e-01    4.99e-01   -5.12e-01   -5.14e-01
Vds:       4.99e-01    4.99e-01    8.38e-01   -9.62e-01   -8.15e-01
Vbs:       0.00e+00    0.00e+00    0.00e+00    0.00e+00    0.00e+00
Vth:       4.57e-01    4.57e-01    4.81e-01   -5.04e-01   -4.99e-01
Vdsat:     6.42e-02    6.42e-02    5.64e-02   -6.00e-02   -6.18e-02
Gm:        3.24e-05    3.24e-05    7.16e-05    7.29e-05    3.22e-05
Gds:       3.96e-07    3.96e-07    1.97e-06    6.99e-07    3.41e-07
Gmb        9.11e-06    9.11e-06    1.87e-05    2.18e-05    9.60e-06
Cbd:       0.00e+00    0.00e+00    0.00e+00    0.00e+00    0.00e+00
Cbs:       0.00e+00    0.00e+00    0.00e+00    0.00e+00    0.00e+00
Cgsov:     8.23e-16    8.23e-16    8.23e-16    3.18e-15    1.27e-15
Cgdov:     8.23e-16    8.23e-16    8.23e-16    3.18e-15    1.27e-15
Cgbov:     3.26e-19    3.26e-19    1.46e-19    1.21e-19    1.21e-19
dQgdVgb:   3.59e-15    3.59e-15    2.42e-15    9.32e-15    3.79e-15
dQgdVdb:  -8.15e-16   -8.15e-16   -8.19e-16   -3.17e-15   -1.27e-15
dQgdVsb:  -2.49e-15   -2.49e-15   -1.44e-15   -5.55e-15   -2.30e-15
dQddVgb:  -1.52e-15   -1.52e-15   -1.08e-15   -4.12e-15   -1.68e-15
dQddVdb:   8.19e-16    8.19e-16    8.21e-16    3.17e-15    1.27e-15
dQddVsb:   9.19e-16    9.19e-16    3.32e-16    1.24e-15    5.35e-16
dQbdVgb:  -5.45e-16   -5.45e-16   -2.67e-16   -1.09e-15   -4.34e-16
dQbdVdb:   5.79e-19    5.79e-19    2.96e-19    1.99e-19    7.08e-20
dQbdVsb:  -1.71e-16   -1.71e-16   -4.88e-17   -9.97e-17   -4.07e-17

Name:      m:x1:3      m:x1:2      m:x1:1
Model:    x1:cmosp    x1:cmosp    x1:cmosp
Id:       -1.60e-06   -3.19e-06   -3.22e-06
Vgs:      -5.14e-01   -5.12e-01   -5.12e-01
Vds:      -8.15e-01   -4.86e-01   -5.12e-01
Vbs:       0.00e+00    0.00e+00    0.00e+00
Vth:      -4.99e-01   -5.06e-01   -5.06e-01
Vdsat:    -6.18e-02   -5.95e-02   -5.96e-02
Gm:        3.22e-05    6.58e-05    6.63e-05
Gds:       3.41e-07    9.67e-07    9.34e-07
Gmb        9.60e-06    1.97e-05    1.99e-05
Cbd:       0.00e+00    0.00e+00    0.00e+00
Cbs:       0.00e+00    0.00e+00    0.00e+00
Cgsov:     1.27e-15    3.18e-15    3.18e-15
Cgdov:     1.27e-15    3.18e-15    3.18e-15
Cgbov:     1.21e-19    1.21e-19    1.21e-19
dQgdVgb:   3.79e-15    9.29e-15    9.29e-15
dQgdVdb:  -1.27e-15   -3.17e-15   -3.17e-15
dQgdVsb:  -2.30e-15   -5.51e-15   -5.52e-15
dQddVgb:  -1.68e-15   -4.10e-15   -4.10e-15
dQddVdb:   1.27e-15    3.17e-15    3.17e-15
dQddVsb:   5.35e-16    1.22e-15    1.22e-15
dQbdVgb:  -4.34e-16   -1.09e-15   -1.09e-15
dQbdVdb:   7.08e-20   -1.26e-19   -7.32e-20
dQbdVsb:  -4.07e-17   -9.92e-17   -9.91e-17



loop_gain_angle: v(vout)=(-0.00133734dB,-114.485°) at 3.63178e+008
gain_margin: v(vout)=(-11.8029dB,-178.65°) at 1.68262e+009


Date: Thu Nov 08 19:21:20 2018
Total elapsed time: 0.418 seconds.

tnom = 27
temp = 27
method = trap
totiter = 6
traniter = 0
tranpoints = 0
accept = 0
rejected = 0
matrix size = 12
fillins = 2
solver = Normal
Matrix Compiler1:      44 opcodes
Matrix Compiler2: 1.05 KB object code size
